# Compile of axis_pvp_gen_v2_tb.sv failed with 3 errors.
# Compile of axi_lite_master.sv was successful.
# Compile of axis_pvp_gen_v2.v failed with 1 errors.
# 3 compiles, 2 failed with 4 errors.
# Error opening Z:/Documents/GitHub/hmc-qick/firmware/ip/axis_pvp_gen_v2/src/tb/pvp_gen_testing/(vlog-13069) Z:/Documents/GitHub/hmc-qick/firmware/ip/axis_pvp_gen_v2/src/tb/pvp_gen_testing/axis_pvp_gen_v2_tb.sv
# Path name 'Z:/Documents/GitHub/hmc-qick/firmware/ip/axis_pvp_gen_v2/src/tb/pvp_gen_testing/(vlog-13069) Z:/Documents/GitHub/hmc-qick/firmware/ip/axis_pvp_gen_v2/src/tb/pvp_gen_testing/axis_pvp_gen_v2_tb.sv' doesn't exist.
# Compile of axis_pvp_gen_v2_tb.sv failed with 2 errors.
# Compile of axi_lite_master.sv was successful.
# Compile of axis_pvp_gen_v2.v failed with 1 errors.
# 3 compiles, 2 failed with 3 errors.
# Error opening Z:/Documents/GitHub/hmc-qick/firmware/ip/axis_pvp_gen_v2/src/tb/pvp_gen_testing/(vlog-13069) Z:/Documents/GitHub/hmc-qick/firmware/ip/axis_pvp_gen_v2/src/tb/pvp_gen_testing/axis_pvp_gen_v2_tb.sv
# Path name 'Z:/Documents/GitHub/hmc-qick/firmware/ip/axis_pvp_gen_v2/src/tb/pvp_gen_testing/(vlog-13069) Z:/Documents/GitHub/hmc-qick/firmware/ip/axis_pvp_gen_v2/src/tb/pvp_gen_testing/axis_pvp_gen_v2_tb.sv' doesn't exist.
# Compile of axis_pvp_gen_v2_tb.sv failed with 1 errors.
# Compile of axi_lite_master.sv was successful.
# Compile of axis_pvp_gen_v2.v failed with 1 errors.
# 3 compiles, 2 failed with 2 errors.
# Error opening Z:/Documents/GitHub/hmc-qick/firmware/ip/axis_pvp_gen_v2/src/tb/pvp_gen_testing/(vlog-13069) Z:/Documents/GitHub/hmc-qick/firmware/ip/axis_pvp_gen_v2/src/tb/pvp_gen_testing/axis_pvp_gen_v2_tb.sv
# Path name 'Z:/Documents/GitHub/hmc-qick/firmware/ip/axis_pvp_gen_v2/src/tb/pvp_gen_testing/(vlog-13069) Z:/Documents/GitHub/hmc-qick/firmware/ip/axis_pvp_gen_v2/src/tb/pvp_gen_testing/axis_pvp_gen_v2_tb.sv' doesn't exist.
# Compile of axis_pvp_gen_v2_tb.sv failed with 1 errors.
# Compile of axi_lite_master.sv was successful.
# Compile of axis_pvp_gen_v2.v failed with 1 errors.
# 3 compiles, 2 failed with 2 errors.
# Compile of axis_pvp_gen_v2_tb.sv failed with 1 errors.
# Compile of axis_pvp_gen_v2_tb.sv was successful.
# Compile of axis_pvp_gen_v2.v failed with 1 errors.
# Error opening Z:/Documents/GitHub/hmc-qick/firmware/ip/axis_pvp_gen_v2/src/tb/pvp_gen_testing/(vlog-13069) Z:/Documents/GitHub/hmc-qick/firmware/ip/axis_pvp_gen_v2/src/axis_pvp_gen_v2.v
# Path name 'Z:/Documents/GitHub/hmc-qick/firmware/ip/axis_pvp_gen_v2/src/tb/pvp_gen_testing/(vlog-13069) Z:/Documents/GitHub/hmc-qick/firmware/ip/axis_pvp_gen_v2/src/axis_pvp_gen_v2.v' doesn't exist.
# Compile of axis_pvp_gen_v2.v failed with 2 errors.
# Compile of axis_pvp_gen_v2.v was successful.
vsim -gui work.axis_pvp_gen_v2_tb
# vsim -gui work.axis_pvp_gen_v2_tb 
# Start time: 23:40:04 on Feb 26,2025
# ** Note: (vsim-3812) Design is being optimized...
# ** Error: Z:/Documents/GitHub/hmc-qick/firmware/ip/axis_pvp_gen_v2/src/axis_pvp_gen_v2.v(162): Module 'axil_slv' is not defined.
#  For instance 'axil_slv_i' at path 'axis_pvp_gen_v2_tb.apg_i'
# ** Error: Z:/Documents/GitHub/hmc-qick/firmware/ip/axis_pvp_gen_v2/src/axis_pvp_gen_v2.v(237): Module 'no_mem_sweep' is not defined.
#  For instance 'no_mem_sweep_i' at path 'axis_pvp_gen_v2_tb.apg_i'
# ** Error: Z:/Documents/GitHub/hmc-qick/firmware/ip/axis_pvp_gen_v2/src/tb/pvp_gen_testing/axis_pvp_gen_v2_tb.sv(189): Module 'axi_vdma_0' is not defined.
#  For instance 'axi_vdma_i' at path 'axis_pvp_gen_v2_tb'
# Optimization failed
# ** Note: (vsim-12126) Error and warning message counts have been restored: Errors=3, Warnings=0.
# Error loading design
# End time: 23:40:15 on Feb 26,2025, Elapsed time: 0:00:11
# Errors: 3, Warnings: 16
# Compile of axil_slv.v was successful.
vsim -gui work.axis_pvp_gen_v2_tb
# vsim -gui work.axis_pvp_gen_v2_tb 
# Start time: 23:41:34 on Feb 26,2025
# ** Note: (vsim-3812) Design is being optimized...
# ** Error: Z:/Documents/GitHub/hmc-qick/firmware/ip/axis_pvp_gen_v2/src/axis_pvp_gen_v2.v(162): Module 'axil_slv' is not defined.
#  For instance 'axil_slv_i' at path 'axis_pvp_gen_v2_tb.apg_i'
# ** Error: Z:/Documents/GitHub/hmc-qick/firmware/ip/axis_pvp_gen_v2/src/axis_pvp_gen_v2.v(237): Module 'no_mem_sweep' is not defined.
#  For instance 'no_mem_sweep_i' at path 'axis_pvp_gen_v2_tb.apg_i'
# ** Error: Z:/Documents/GitHub/hmc-qick/firmware/ip/axis_pvp_gen_v2/src/tb/pvp_gen_testing/axis_pvp_gen_v2_tb.sv(189): Module 'axi_vdma_0' is not defined.
#  For instance 'axi_vdma_i' at path 'axis_pvp_gen_v2_tb'
# Optimization failed
# ** Note: (vsim-12126) Error and warning message counts have been restored: Errors=3, Warnings=0.
# Error loading design
# End time: 23:41:37 on Feb 26,2025, Elapsed time: 0:00:03
# Errors: 3, Warnings: 3
# A time value could not be extracted from the current line
# Compile of axis_pvp_gen_v2_tb.sv was successful.
# Compile of axi_lite_master.sv was successful.
# Compile of axil_slv.sv was successful.
# Compile of axis_pvp_gen_v2.sv was successful.
# 4 compiles, 0 failed with no errors.
vsim -gui work.axis_pvp_gen_v2_tb
# vsim -gui work.axis_pvp_gen_v2_tb 
# Start time: 23:44:46 on Feb 26,2025
# ** Note: (vsim-3812) Design is being optimized...
# ** Error: Z:/Documents/GitHub/hmc-qick/firmware/ip/axis_pvp_gen_v2/src/tb/pvp_gen_testing/axis_pvp_gen_v2.sv(162): Module 'axil_slv' is not defined.
#  For instance 'axil_slv_i' at path 'axis_pvp_gen_v2_tb.apg_i'
# ** Error: Z:/Documents/GitHub/hmc-qick/firmware/ip/axis_pvp_gen_v2/src/tb/pvp_gen_testing/axis_pvp_gen_v2.sv(237): Module 'no_mem_sweep' is not defined.
#  For instance 'no_mem_sweep_i' at path 'axis_pvp_gen_v2_tb.apg_i'
# ** Error: Z:/Documents/GitHub/hmc-qick/firmware/ip/axis_pvp_gen_v2/src/tb/pvp_gen_testing/axis_pvp_gen_v2_tb.sv(189): Module 'axi_vdma_0' is not defined.
#  For instance 'axi_vdma_i' at path 'axis_pvp_gen_v2_tb'
# Optimization failed
# ** Note: (vsim-12126) Error and warning message counts have been restored: Errors=3, Warnings=0.
# Error loading design
# End time: 23:44:49 on Feb 26,2025, Elapsed time: 0:00:03
# Errors: 3, Warnings: 4
# A time value could not be extracted from the current line
# Compile of axis_pvp_gen_v2_tb.sv was successful.
# Compile of axi_lite_master.sv was successful.
# Compile of axil_slv.sv was successful.
# Compile of axis_pvp_gen_v2.sv was successful.
# Compile of no_mem_sweep.sv was successful.
# 5 compiles, 0 failed with no errors.
vsim -gui work.axis_pvp_gen_v2_tb
# vsim -gui work.axis_pvp_gen_v2_tb 
# Start time: 23:48:42 on Feb 26,2025
# ** Note: (vsim-3812) Design is being optimized...
# ** Error (suppressible): Z:/Documents/GitHub/hmc-qick/firmware/ip/axis_pvp_gen_v2/src/tb/pvp_gen_testing/axis_pvp_gen_v2.sv(235): (vopt-2732) Module parameter 'N' not found for override.
# ** Error: Z:/Documents/GitHub/hmc-qick/firmware/ip/axis_pvp_gen_v2/src/tb/pvp_gen_testing/axil_slv.sv(322): Module 'arbiter' is not defined.
#  For instance 'arb_inst' at path 'axis_pvp_gen_v2_tb.apg_i.axil_slv_i'
# ** Error: Z:/Documents/GitHub/hmc-qick/firmware/ip/axis_pvp_gen_v2/src/tb/pvp_gen_testing/axis_pvp_gen_v2_tb.sv(189): Module 'axi_vdma_0' is not defined.
#  For instance 'axi_vdma_i' at path 'axis_pvp_gen_v2_tb'
# Optimization failed
# ** Note: (vsim-12126) Error and warning message counts have been restored: Errors=3, Warnings=0.
# Error loading design
# End time: 23:48:44 on Feb 26,2025, Elapsed time: 0:00:02
# Errors: 3, Warnings: 3
# A time value could not be extracted from the current line
# Compile of axis_pvp_gen_v2_tb.sv was successful.
# Compile of axi_lite_master.sv was successful.
# Compile of axil_slv.sv was successful.
# Compile of axis_pvp_gen_v2.sv was successful.
# Compile of no_mem_sweep.sv was successful.
# Compile of arbiter.v was successful.
# 6 compiles, 0 failed with no errors.
vsim -gui work.axis_pvp_gen_v2_tb
# vsim -gui work.axis_pvp_gen_v2_tb 
# Start time: 23:49:49 on Feb 26,2025
# ** Note: (vsim-3812) Design is being optimized...
# ** Error (suppressible): Z:/Documents/GitHub/hmc-qick/firmware/ip/axis_pvp_gen_v2/src/tb/pvp_gen_testing/axis_pvp_gen_v2.sv(235): (vopt-2732) Module parameter 'N' not found for override.
# ** Error: Z:/Documents/GitHub/hmc-qick/firmware/ip/axis_pvp_gen_v2/src/arbiter.v(74): Module 'priority_encoder' is not defined.
#  For instance 'priority_encoder_inst' at path 'axis_pvp_gen_v2_tb.apg_i.axil_slv_i.arb_inst'
# ** Error: Z:/Documents/GitHub/hmc-qick/firmware/ip/axis_pvp_gen_v2/src/arbiter.v(91): Module 'priority_encoder' is not defined.
#  For instance 'priority_encoder_masked' at path 'axis_pvp_gen_v2_tb.apg_i.axil_slv_i.arb_inst'
# ** Error: Z:/Documents/GitHub/hmc-qick/firmware/ip/axis_pvp_gen_v2/src/tb/pvp_gen_testing/axis_pvp_gen_v2_tb.sv(189): Module 'axi_vdma_0' is not defined.
#  For instance 'axi_vdma_i' at path 'axis_pvp_gen_v2_tb'
# Optimization failed
# ** Note: (vsim-12126) Error and warning message counts have been restored: Errors=4, Warnings=0.
# Error loading design
# End time: 23:49:51 on Feb 26,2025, Elapsed time: 0:00:02
# Errors: 4, Warnings: 3
# A time value could not be extracted from the current line
# Compile of axis_pvp_gen_v2.sv was successful.
vsim -gui work.axis_pvp_gen_v2_tb
# vsim -gui work.axis_pvp_gen_v2_tb 
# Start time: 23:51:20 on Feb 26,2025
# ** Note: (vsim-3812) Design is being optimized...
# ** Error: Z:/Documents/GitHub/hmc-qick/firmware/ip/axis_pvp_gen_v2/src/arbiter.v(74): Module 'priority_encoder' is not defined.
#  For instance 'priority_encoder_inst' at path 'axis_pvp_gen_v2_tb.apg_i.axil_slv_i.arb_inst'
# ** Error: Z:/Documents/GitHub/hmc-qick/firmware/ip/axis_pvp_gen_v2/src/arbiter.v(91): Module 'priority_encoder' is not defined.
#  For instance 'priority_encoder_masked' at path 'axis_pvp_gen_v2_tb.apg_i.axil_slv_i.arb_inst'
# ** Error: Z:/Documents/GitHub/hmc-qick/firmware/ip/axis_pvp_gen_v2/src/tb/pvp_gen_testing/axis_pvp_gen_v2_tb.sv(189): Module 'axi_vdma_0' is not defined.
#  For instance 'axi_vdma_i' at path 'axis_pvp_gen_v2_tb'
# Optimization failed
# ** Note: (vsim-12126) Error and warning message counts have been restored: Errors=3, Warnings=0.
# Error loading design
# End time: 23:51:23 on Feb 26,2025, Elapsed time: 0:00:03
# Errors: 3, Warnings: 2
# A time value could not be extracted from the current line
# Compile of priority_encoder.v was successful.
vsim -gui work.axis_pvp_gen_v2_tb
# vsim -gui work.axis_pvp_gen_v2_tb 
# Start time: 23:53:28 on Feb 26,2025
# ** Note: (vsim-3812) Design is being optimized...
# ** Error: Z:/Documents/GitHub/hmc-qick/firmware/ip/axis_pvp_gen_v2/src/tb/pvp_gen_testing/axis_pvp_gen_v2_tb.sv(189): Module 'axi_vdma_0' is not defined.
#  For instance 'axi_vdma_i' at path 'axis_pvp_gen_v2_tb'
# Optimization failed
# ** Note: (vsim-12126) Error and warning message counts have been restored: Errors=1, Warnings=0.
# Error loading design
# End time: 23:53:31 on Feb 26,2025, Elapsed time: 0:00:03
# Errors: 1, Warnings: 3
# Errors: 1, Warnings: 0
# Compile of vdma.c failed with 1 errors.
# Compile of axi_spi_simple.vhd was successful.
# Compile of axis_pvp_gen_v2_tb.sv failed with 1 errors.
# Compile of axis_pvp_gen_v2_tb.sv was successful.
vsim -gui work.axis_pvp_gen_v2_tb
# vsim -gui work.axis_pvp_gen_v2_tb 
# Start time: 00:12:35 on Feb 27,2025
# ** Note: (vsim-3812) Design is being optimized...
# ** Warning: Z:/Documents/GitHub/hmc-qick/firmware/ip/axis_pvp_gen_v2/src/tb/pvp_gen_testing/axi_spi_simple.vhd(153): (vopt-3473) Component instance "U0 : spi_peripheral" is not bound.
#         Region: axis_pvp_gen_v2_tb.axi_spi_i
# ** Warning: Z:/Documents/GitHub/hmc-qick/firmware/ip/axis_pvp_gen_v2/src/tb/pvp_gen_testing/axi_spi_simple.vhd(178): (vopt-3473) Component instance "U1 : axi4_lite_interface_v1_0" is not bound.
#         Region: axis_pvp_gen_v2_tb.axi_spi_i
# ** Warning: Z:/Documents/GitHub/hmc-qick/firmware/ip/axis_pvp_gen_v2/src/tb/pvp_gen_testing/axis_pvp_gen_v2_tb.sv(158): (vopt-2241) Connection width does not match width of port 'M_AXI_WDATA'. The port definition is at: Z:/Documents/GitHub/hmc-qick/firmware/ip/axis_pvp_gen_v2/src/tb/pvp_gen_testing/axi_lite_master.sv(35).
# ** Warning: Z:/Documents/GitHub/hmc-qick/firmware/ip/axis_pvp_gen_v2/src/tb/pvp_gen_testing/axis_pvp_gen_v2_tb.sv(158): (vopt-2241) Connection width does not match width of port 'M_AXI_RDATA'. The port definition is at: Z:/Documents/GitHub/hmc-qick/firmware/ip/axis_pvp_gen_v2/src/tb/pvp_gen_testing/axi_lite_master.sv(52).
# ** Warning: Z:/Documents/GitHub/hmc-qick/firmware/ip/axis_pvp_gen_v2/src/tb/pvp_gen_testing/axis_pvp_gen_v2_tb.sv(158): (vopt-2241) Connection width does not match width of port 'M_AXI_RRESP'. The port definition is at: Z:/Documents/GitHub/hmc-qick/firmware/ip/axis_pvp_gen_v2/src/tb/pvp_gen_testing/axi_lite_master.sv(53).
# ** Warning: Z:/Documents/GitHub/hmc-qick/firmware/ip/axis_pvp_gen_v2/src/tb/pvp_gen_testing/axis_pvp_gen_v2.sv(237): (vopt-2241) Connection width does not match width of port 'mosi'. The port definition is at: Z:/Documents/GitHub/hmc-qick/firmware/ip/axis_pvp_gen_v2/src/no_mem_sweep.sv(18).
# ** Warning: Z:/Documents/GitHub/hmc-qick/firmware/ip/axis_pvp_gen_v2/src/tb/pvp_gen_testing/axis_pvp_gen_v2.sv(162): (vopt-2241) Connection width does not match width of port 's_axil_awaddr'. The port definition is at: Z:/Documents/GitHub/hmc-qick/firmware/ip/axis_pvp_gen_v2/src/tb/pvp_gen_testing/axil_slv.sv(66).
# ** Warning: Z:/Documents/GitHub/hmc-qick/firmware/ip/axis_pvp_gen_v2/src/tb/pvp_gen_testing/axis_pvp_gen_v2.sv(162): (vopt-2241) Connection width does not match width of port 's_axil_awprot'. The port definition is at: Z:/Documents/GitHub/hmc-qick/firmware/ip/axis_pvp_gen_v2/src/tb/pvp_gen_testing/axil_slv.sv(67).
# ** Warning: Z:/Documents/GitHub/hmc-qick/firmware/ip/axis_pvp_gen_v2/src/tb/pvp_gen_testing/axis_pvp_gen_v2.sv(162): (vopt-2241) Connection width does not match width of port 's_axil_awvalid'. The port definition is at: Z:/Documents/GitHub/hmc-qick/firmware/ip/axis_pvp_gen_v2/src/tb/pvp_gen_testing/axil_slv.sv(68).
# ** Warning: Z:/Documents/GitHub/hmc-qick/firmware/ip/axis_pvp_gen_v2/src/tb/pvp_gen_testing/axis_pvp_gen_v2.sv(162): (vopt-2241) Connection width does not match width of port 's_axil_awready'. The port definition is at: Z:/Documents/GitHub/hmc-qick/firmware/ip/axis_pvp_gen_v2/src/tb/pvp_gen_testing/axil_slv.sv(69).
# ** Warning: Z:/Documents/GitHub/hmc-qick/firmware/ip/axis_pvp_gen_v2/src/tb/pvp_gen_testing/axis_pvp_gen_v2.sv(162): (vopt-2241) Connection width does not match width of port 's_axil_wdata'. The port definition is at: Z:/Documents/GitHub/hmc-qick/firmware/ip/axis_pvp_gen_v2/src/tb/pvp_gen_testing/axil_slv.sv(70).
# ** Warning: Z:/Documents/GitHub/hmc-qick/firmware/ip/axis_pvp_gen_v2/src/tb/pvp_gen_testing/axis_pvp_gen_v2.sv(162): (vopt-2241) Connection width does not match width of port 's_axil_wstrb'. The port definition is at: Z:/Documents/GitHub/hmc-qick/firmware/ip/axis_pvp_gen_v2/src/tb/pvp_gen_testing/axil_slv.sv(71).
# ** Warning: Z:/Documents/GitHub/hmc-qick/firmware/ip/axis_pvp_gen_v2/src/tb/pvp_gen_testing/axis_pvp_gen_v2.sv(162): (vopt-2241) Connection width does not match width of port 's_axil_wvalid'. The port definition is at: Z:/Documents/GitHub/hmc-qick/firmware/ip/axis_pvp_gen_v2/src/tb/pvp_gen_testing/axil_slv.sv(72).
# ** Warning: Z:/Documents/GitHub/hmc-qick/firmware/ip/axis_pvp_gen_v2/src/tb/pvp_gen_testing/axis_pvp_gen_v2.sv(162): (vopt-2241) Connection width does not match width of port 's_axil_wready'. The port definition is at: Z:/Documents/GitHub/hmc-qick/firmware/ip/axis_pvp_gen_v2/src/tb/pvp_gen_testing/axil_slv.sv(73).
# ** Warning: Z:/Documents/GitHub/hmc-qick/firmware/ip/axis_pvp_gen_v2/src/tb/pvp_gen_testing/axis_pvp_gen_v2.sv(162): (vopt-2241) Connection width does not match width of port 's_axil_bresp'. The port definition is at: Z:/Documents/GitHub/hmc-qick/firmware/ip/axis_pvp_gen_v2/src/tb/pvp_gen_testing/axil_slv.sv(74).
# ** Warning: Z:/Documents/GitHub/hmc-qick/firmware/ip/axis_pvp_gen_v2/src/tb/pvp_gen_testing/axis_pvp_gen_v2.sv(162): (vopt-2241) Connection width does not match width of port 's_axil_bvalid'. The port definition is at: Z:/Documents/GitHub/hmc-qick/firmware/ip/axis_pvp_gen_v2/src/tb/pvp_gen_testing/axil_slv.sv(75).
# ** Warning: Z:/Documents/GitHub/hmc-qick/firmware/ip/axis_pvp_gen_v2/src/tb/pvp_gen_testing/axis_pvp_gen_v2.sv(162): (vopt-2241) Connection width does not match width of port 's_axil_bready'. The port definition is at: Z:/Documents/GitHub/hmc-qick/firmware/ip/axis_pvp_gen_v2/src/tb/pvp_gen_testing/axil_slv.sv(76).
# ** Warning: Z:/Documents/GitHub/hmc-qick/firmware/ip/axis_pvp_gen_v2/src/tb/pvp_gen_testing/axis_pvp_gen_v2.sv(162): (vopt-2241) Connection width does not match width of port 's_axil_araddr'. The port definition is at: Z:/Documents/GitHub/hmc-qick/firmware/ip/axis_pvp_gen_v2/src/tb/pvp_gen_testing/axil_slv.sv(77).
# ** Warning: Z:/Documents/GitHub/hmc-qick/firmware/ip/axis_pvp_gen_v2/src/tb/pvp_gen_testing/axis_pvp_gen_v2.sv(162): (vopt-2241) Connection width does not match width of port 's_axil_arprot'. The port definition is at: Z:/Documents/GitHub/hmc-qick/firmware/ip/axis_pvp_gen_v2/src/tb/pvp_gen_testing/axil_slv.sv(78).
# ** Warning: Z:/Documents/GitHub/hmc-qick/firmware/ip/axis_pvp_gen_v2/src/tb/pvp_gen_testing/axis_pvp_gen_v2.sv(162): (vopt-2241) Connection width does not match width of port 's_axil_arvalid'. The port definition is at: Z:/Documents/GitHub/hmc-qick/firmware/ip/axis_pvp_gen_v2/src/tb/pvp_gen_testing/axil_slv.sv(79).
# ** Warning: Z:/Documents/GitHub/hmc-qick/firmware/ip/axis_pvp_gen_v2/src/tb/pvp_gen_testing/axis_pvp_gen_v2.sv(162): (vopt-2241) Connection width does not match width of port 's_axil_arready'. The port definition is at: Z:/Documents/GitHub/hmc-qick/firmware/ip/axis_pvp_gen_v2/src/tb/pvp_gen_testing/axil_slv.sv(80).
# ** Warning: Z:/Documents/GitHub/hmc-qick/firmware/ip/axis_pvp_gen_v2/src/tb/pvp_gen_testing/axis_pvp_gen_v2.sv(162): (vopt-2241) Connection width does not match width of port 's_axil_rdata'. The port definition is at: Z:/Documents/GitHub/hmc-qick/firmware/ip/axis_pvp_gen_v2/src/tb/pvp_gen_testing/axil_slv.sv(81).
# ** Warning: Z:/Documents/GitHub/hmc-qick/firmware/ip/axis_pvp_gen_v2/src/tb/pvp_gen_testing/axis_pvp_gen_v2.sv(162): (vopt-2241) Connection width does not match width of port 's_axil_rresp'. The port definition is at: Z:/Documents/GitHub/hmc-qick/firmware/ip/axis_pvp_gen_v2/src/tb/pvp_gen_testing/axil_slv.sv(82).
# ** Warning: Z:/Documents/GitHub/hmc-qick/firmware/ip/axis_pvp_gen_v2/src/tb/pvp_gen_testing/axis_pvp_gen_v2.sv(162): (vopt-2241) Connection width does not match width of port 's_axil_rvalid'. The port definition is at: Z:/Documents/GitHub/hmc-qick/firmware/ip/axis_pvp_gen_v2/src/tb/pvp_gen_testing/axil_slv.sv(83).
# ** Warning: Z:/Documents/GitHub/hmc-qick/firmware/ip/axis_pvp_gen_v2/src/tb/pvp_gen_testing/axis_pvp_gen_v2.sv(162): (vopt-2241) Connection width does not match width of port 's_axil_rready'. The port definition is at: Z:/Documents/GitHub/hmc-qick/firmware/ip/axis_pvp_gen_v2/src/tb/pvp_gen_testing/axil_slv.sv(84).
# ** Warning: Z:/Documents/GitHub/hmc-qick/firmware/ip/axis_pvp_gen_v2/src/tb/pvp_gen_testing/axis_pvp_gen_v2.sv(162): (vopt-2241) Connection width does not match width of port 'm_axil_awaddr'. The port definition is at: Z:/Documents/GitHub/hmc-qick/firmware/ip/axis_pvp_gen_v2/src/tb/pvp_gen_testing/axil_slv.sv(89).
# ** Warning: Z:/Documents/GitHub/hmc-qick/firmware/ip/axis_pvp_gen_v2/src/tb/pvp_gen_testing/axis_pvp_gen_v2.sv(162): (vopt-2241) Connection width does not match width of port 'm_axil_awprot'. The port definition is at: Z:/Documents/GitHub/hmc-qick/firmware/ip/axis_pvp_gen_v2/src/tb/pvp_gen_testing/axil_slv.sv(90).
# ** Warning: Z:/Documents/GitHub/hmc-qick/firmware/ip/axis_pvp_gen_v2/src/tb/pvp_gen_testing/axis_pvp_gen_v2.sv(162): (vopt-2241) Connection width does not match width of port 'm_axil_awvalid'. The port definition is at: Z:/Documents/GitHub/hmc-qick/firmware/ip/axis_pvp_gen_v2/src/tb/pvp_gen_testing/axil_slv.sv(91).
# ** Warning: Z:/Documents/GitHub/hmc-qick/firmware/ip/axis_pvp_gen_v2/src/tb/pvp_gen_testing/axis_pvp_gen_v2.sv(162): (vopt-2241) Connection width does not match width of port 'm_axil_awready'. The port definition is at: Z:/Documents/GitHub/hmc-qick/firmware/ip/axis_pvp_gen_v2/src/tb/pvp_gen_testing/axil_slv.sv(92).
# ** Warning: Z:/Documents/GitHub/hmc-qick/firmware/ip/axis_pvp_gen_v2/src/tb/pvp_gen_testing/axis_pvp_gen_v2.sv(162): (vopt-2241) Connection width does not match width of port 'm_axil_wdata'. The port definition is at: Z:/Documents/GitHub/hmc-qick/firmware/ip/axis_pvp_gen_v2/src/tb/pvp_gen_testing/axil_slv.sv(93).
# ** Warning: Z:/Documents/GitHub/hmc-qick/firmware/ip/axis_pvp_gen_v2/src/tb/pvp_gen_testing/axis_pvp_gen_v2.sv(162): (vopt-2241) Connection width does not match width of port 'm_axil_wstrb'. The port definition is at: Z:/Documents/GitHub/hmc-qick/firmware/ip/axis_pvp_gen_v2/src/tb/pvp_gen_testing/axil_slv.sv(94).
# ** Warning: Z:/Documents/GitHub/hmc-qick/firmware/ip/axis_pvp_gen_v2/src/tb/pvp_gen_testing/axis_pvp_gen_v2.sv(162): (vopt-2241) Connection width does not match width of port 'm_axil_wvalid'. The port definition is at: Z:/Documents/GitHub/hmc-qick/firmware/ip/axis_pvp_gen_v2/src/tb/pvp_gen_testing/axil_slv.sv(95).
# ** Warning: Z:/Documents/GitHub/hmc-qick/firmware/ip/axis_pvp_gen_v2/src/tb/pvp_gen_testing/axis_pvp_gen_v2.sv(162): (vopt-2241) Connection width does not match width of port 'm_axil_wready'. The port definition is at: Z:/Documents/GitHub/hmc-qick/firmware/ip/axis_pvp_gen_v2/src/tb/pvp_gen_testing/axil_slv.sv(96).
# ** Warning: Z:/Documents/GitHub/hmc-qick/firmware/ip/axis_pvp_gen_v2/src/tb/pvp_gen_testing/axis_pvp_gen_v2.sv(162): (vopt-2241) Connection width does not match width of port 'm_axil_bresp'. The port definition is at: Z:/Documents/GitHub/hmc-qick/firmware/ip/axis_pvp_gen_v2/src/tb/pvp_gen_testing/axil_slv.sv(97).
# ** Warning: Z:/Documents/GitHub/hmc-qick/firmware/ip/axis_pvp_gen_v2/src/tb/pvp_gen_testing/axis_pvp_gen_v2.sv(162): (vopt-2241) Connection width does not match width of port 'm_axil_bvalid'. The port definition is at: Z:/Documents/GitHub/hmc-qick/firmware/ip/axis_pvp_gen_v2/src/tb/pvp_gen_testing/axil_slv.sv(98).
# ** Warning: Z:/Documents/GitHub/hmc-qick/firmware/ip/axis_pvp_gen_v2/src/tb/pvp_gen_testing/axis_pvp_gen_v2.sv(162): (vopt-2241) Connection width does not match width of port 'm_axil_bready'. The port definition is at: Z:/Documents/GitHub/hmc-qick/firmware/ip/axis_pvp_gen_v2/src/tb/pvp_gen_testing/axil_slv.sv(99).
# ** Warning: Z:/Documents/GitHub/hmc-qick/firmware/ip/axis_pvp_gen_v2/src/tb/pvp_gen_testing/axis_pvp_gen_v2.sv(162): (vopt-2241) Connection width does not match width of port 'm_axil_araddr'. The port definition is at: Z:/Documents/GitHub/hmc-qick/firmware/ip/axis_pvp_gen_v2/src/tb/pvp_gen_testing/axil_slv.sv(100).
# ** Warning: Z:/Documents/GitHub/hmc-qick/firmware/ip/axis_pvp_gen_v2/src/tb/pvp_gen_testing/axis_pvp_gen_v2.sv(162): (vopt-2241) Connection width does not match width of port 'm_axil_arprot'. The port definition is at: Z:/Documents/GitHub/hmc-qick/firmware/ip/axis_pvp_gen_v2/src/tb/pvp_gen_testing/axil_slv.sv(101).
# ** Warning: Z:/Documents/GitHub/hmc-qick/firmware/ip/axis_pvp_gen_v2/src/tb/pvp_gen_testing/axis_pvp_gen_v2.sv(162): (vopt-2241) Connection width does not match width of port 'm_axil_arvalid'. The port definition is at: Z:/Documents/GitHub/hmc-qick/firmware/ip/axis_pvp_gen_v2/src/tb/pvp_gen_testing/axil_slv.sv(102).
# ** Warning: Z:/Documents/GitHub/hmc-qick/firmware/ip/axis_pvp_gen_v2/src/tb/pvp_gen_testing/axis_pvp_gen_v2.sv(162): (vopt-2241) Connection width does not match width of port 'm_axil_arready'. The port definition is at: Z:/Documents/GitHub/hmc-qick/firmware/ip/axis_pvp_gen_v2/src/tb/pvp_gen_testing/axil_slv.sv(103).
# ** Warning: Z:/Documents/GitHub/hmc-qick/firmware/ip/axis_pvp_gen_v2/src/tb/pvp_gen_testing/axis_pvp_gen_v2.sv(162): (vopt-2241) Connection width does not match width of port 'm_axil_rdata'. The port definition is at: Z:/Documents/GitHub/hmc-qick/firmware/ip/axis_pvp_gen_v2/src/tb/pvp_gen_testing/axil_slv.sv(104).
# ** Warning: Z:/Documents/GitHub/hmc-qick/firmware/ip/axis_pvp_gen_v2/src/tb/pvp_gen_testing/axis_pvp_gen_v2.sv(162): (vopt-2241) Connection width does not match width of port 'm_axil_rresp'. The port definition is at: Z:/Documents/GitHub/hmc-qick/firmware/ip/axis_pvp_gen_v2/src/tb/pvp_gen_testing/axil_slv.sv(105).
# ** Warning: Z:/Documents/GitHub/hmc-qick/firmware/ip/axis_pvp_gen_v2/src/tb/pvp_gen_testing/axis_pvp_gen_v2.sv(162): (vopt-2241) Connection width does not match width of port 'm_axil_rvalid'. The port definition is at: Z:/Documents/GitHub/hmc-qick/firmware/ip/axis_pvp_gen_v2/src/tb/pvp_gen_testing/axil_slv.sv(106).
# ** Warning: Z:/Documents/GitHub/hmc-qick/firmware/ip/axis_pvp_gen_v2/src/tb/pvp_gen_testing/axis_pvp_gen_v2.sv(162): (vopt-2241) Connection width does not match width of port 'm_axil_rready'. The port definition is at: Z:/Documents/GitHub/hmc-qick/firmware/ip/axis_pvp_gen_v2/src/tb/pvp_gen_testing/axil_slv.sv(107).
# ** Error (suppressible): Z:/Documents/GitHub/hmc-qick/firmware/ip/axis_pvp_gen_v2/src/tb/pvp_gen_testing/axis_pvp_gen_v2.sv(162): (vopt-2912) Port 'START_VAL_REG' not found in module 'axil_slv' (41st connection).
# ** Error (suppressible): Z:/Documents/GitHub/hmc-qick/firmware/ip/axis_pvp_gen_v2/src/tb/pvp_gen_testing/axis_pvp_gen_v2.sv(162): (vopt-2912) Port 'STEP_SIZE_REG' not found in module 'axil_slv' (42nd connection).
# ** Error (suppressible): Z:/Documents/GitHub/hmc-qick/firmware/ip/axis_pvp_gen_v2/src/tb/pvp_gen_testing/axis_pvp_gen_v2.sv(162): (vopt-2912) Port 'OUTPUT_REG' not found in module 'axil_slv' (43rd connection).
# ** Warning: Z:/Documents/GitHub/hmc-qick/firmware/ip/axis_pvp_gen_v2/src/tb/pvp_gen_testing/axis_pvp_gen_v2_tb.sv(95): (vopt-2241) Connection width does not match width of port 's_axi_awaddr'. The port definition is at: Z:/Documents/GitHub/hmc-qick/firmware/ip/axis_pvp_gen_v2/src/tb/pvp_gen_testing/axis_pvp_gen_v2.sv(12).
# ** Warning: Z:/Documents/GitHub/hmc-qick/firmware/ip/axis_pvp_gen_v2/src/tb/pvp_gen_testing/axis_pvp_gen_v2_tb.sv(95): (vopt-2241) Connection width does not match width of port 's_axi_wdata'. The port definition is at: Z:/Documents/GitHub/hmc-qick/firmware/ip/axis_pvp_gen_v2/src/tb/pvp_gen_testing/axis_pvp_gen_v2.sv(17).
# ** Warning: Z:/Documents/GitHub/hmc-qick/firmware/ip/axis_pvp_gen_v2/src/tb/pvp_gen_testing/axis_pvp_gen_v2_tb.sv(95): (vopt-2241) Connection width does not match width of port 's_axi_araddr'. The port definition is at: Z:/Documents/GitHub/hmc-qick/firmware/ip/axis_pvp_gen_v2/src/tb/pvp_gen_testing/axis_pvp_gen_v2.sv(26).
# ** Warning: Z:/Documents/GitHub/hmc-qick/firmware/ip/axis_pvp_gen_v2/src/tb/pvp_gen_testing/axis_pvp_gen_v2_tb.sv(95): (vopt-2241) Connection width does not match width of port 's_axi_rdata'. The port definition is at: Z:/Documents/GitHub/hmc-qick/firmware/ip/axis_pvp_gen_v2/src/tb/pvp_gen_testing/axis_pvp_gen_v2.sv(31).
# ** Warning: Z:/Documents/GitHub/hmc-qick/firmware/ip/axis_pvp_gen_v2/src/tb/pvp_gen_testing/axis_pvp_gen_v2_tb.sv(95): (vopt-2241) Connection width does not match width of port 's_axi_rresp'. The port definition is at: Z:/Documents/GitHub/hmc-qick/firmware/ip/axis_pvp_gen_v2/src/tb/pvp_gen_testing/axis_pvp_gen_v2.sv(32).
# ** Warning: Z:/Documents/GitHub/hmc-qick/firmware/ip/axis_pvp_gen_v2/src/tb/pvp_gen_testing/axis_pvp_gen_v2_tb.sv(95): (vopt-2241) Connection width does not match width of port 'm_axi_awaddr'. The port definition is at: Z:/Documents/GitHub/hmc-qick/firmware/ip/axis_pvp_gen_v2/src/tb/pvp_gen_testing/axis_pvp_gen_v2.sv(37).
# ** Warning: Z:/Documents/GitHub/hmc-qick/firmware/ip/axis_pvp_gen_v2/src/tb/pvp_gen_testing/axis_pvp_gen_v2_tb.sv(95): (vopt-2241) Connection width does not match width of port 'm_axi_wdata'. The port definition is at: Z:/Documents/GitHub/hmc-qick/firmware/ip/axis_pvp_gen_v2/src/tb/pvp_gen_testing/axis_pvp_gen_v2.sv(42).
# ** Warning: Z:/Documents/GitHub/hmc-qick/firmware/ip/axis_pvp_gen_v2/src/tb/pvp_gen_testing/axis_pvp_gen_v2_tb.sv(95): (vopt-2241) Connection width does not match width of port 'm_axi_araddr'. The port definition is at: Z:/Documents/GitHub/hmc-qick/firmware/ip/axis_pvp_gen_v2/src/tb/pvp_gen_testing/axis_pvp_gen_v2.sv(51).
# ** Warning: Z:/Documents/GitHub/hmc-qick/firmware/ip/axis_pvp_gen_v2/src/tb/pvp_gen_testing/axis_pvp_gen_v2_tb.sv(95): (vopt-2241) Connection width does not match width of port 'm_axi_rdata'. The port definition is at: Z:/Documents/GitHub/hmc-qick/firmware/ip/axis_pvp_gen_v2/src/tb/pvp_gen_testing/axis_pvp_gen_v2.sv(56).
# ** Warning: Z:/Documents/GitHub/hmc-qick/firmware/ip/axis_pvp_gen_v2/src/tb/pvp_gen_testing/axis_pvp_gen_v2_tb.sv(95): (vopt-2241) Connection width does not match width of port 'm_axi_rresp'. The port definition is at: Z:/Documents/GitHub/hmc-qick/firmware/ip/axis_pvp_gen_v2/src/tb/pvp_gen_testing/axis_pvp_gen_v2.sv(57).
# Optimization failed
# ** Note: (vsim-12126) Error and warning message counts have been restored: Errors=3, Warnings=54.
# Error loading design
# End time: 00:12:40 on Feb 27,2025, Elapsed time: 0:00:05
# Errors: 3, Warnings: 63
# A time value could not be extracted from the current line
# A time value could not be extracted from the current line
# A time value could not be extracted from the current line
# A time value could not be extracted from the current line
clear
# invalid command name "clear"
clean
clc
# invalid command name "clc"
clear
# invalid command name "clear"
clean








vsim -gui work.axis_pvp_gen_v2_tb
# vsim -gui work.axis_pvp_gen_v2_tb 
# Start time: 00:17:39 on Feb 27,2025
# ** Note: (vsim-3812) Design is being optimized...
# ** Warning: Z:/Documents/GitHub/hmc-qick/firmware/ip/axis_pvp_gen_v2/src/tb/pvp_gen_testing/axi_spi_simple.vhd(153): (vopt-3473) Component instance "U0 : spi_peripheral" is not bound.
#         Region: axis_pvp_gen_v2_tb.axi_spi_i
# ** Warning: Z:/Documents/GitHub/hmc-qick/firmware/ip/axis_pvp_gen_v2/src/tb/pvp_gen_testing/axi_spi_simple.vhd(178): (vopt-3473) Component instance "U1 : axi4_lite_interface_v1_0" is not bound.
#         Region: axis_pvp_gen_v2_tb.axi_spi_i
# ** Warning: Z:/Documents/GitHub/hmc-qick/firmware/ip/axis_pvp_gen_v2/src/tb/pvp_gen_testing/axis_pvp_gen_v2_tb.sv(158): (vopt-2241) Connection width does not match width of port 'M_AXI_WDATA'. The port definition is at: Z:/Documents/GitHub/hmc-qick/firmware/ip/axis_pvp_gen_v2/src/tb/pvp_gen_testing/axi_lite_master.sv(35).
# ** Warning: Z:/Documents/GitHub/hmc-qick/firmware/ip/axis_pvp_gen_v2/src/tb/pvp_gen_testing/axis_pvp_gen_v2_tb.sv(158): (vopt-2241) Connection width does not match width of port 'M_AXI_RDATA'. The port definition is at: Z:/Documents/GitHub/hmc-qick/firmware/ip/axis_pvp_gen_v2/src/tb/pvp_gen_testing/axi_lite_master.sv(52).
# ** Warning: Z:/Documents/GitHub/hmc-qick/firmware/ip/axis_pvp_gen_v2/src/tb/pvp_gen_testing/axis_pvp_gen_v2_tb.sv(158): (vopt-2241) Connection width does not match width of port 'M_AXI_RRESP'. The port definition is at: Z:/Documents/GitHub/hmc-qick/firmware/ip/axis_pvp_gen_v2/src/tb/pvp_gen_testing/axi_lite_master.sv(53).
# ** Warning: Z:/Documents/GitHub/hmc-qick/firmware/ip/axis_pvp_gen_v2/src/tb/pvp_gen_testing/axis_pvp_gen_v2.sv(237): (vopt-2241) Connection width does not match width of port 'mosi'. The port definition is at: Z:/Documents/GitHub/hmc-qick/firmware/ip/axis_pvp_gen_v2/src/no_mem_sweep.sv(18).
# ** Warning: Z:/Documents/GitHub/hmc-qick/firmware/ip/axis_pvp_gen_v2/src/tb/pvp_gen_testing/axis_pvp_gen_v2.sv(162): (vopt-2241) Connection width does not match width of port 's_axil_awaddr'. The port definition is at: Z:/Documents/GitHub/hmc-qick/firmware/ip/axis_pvp_gen_v2/src/tb/pvp_gen_testing/axil_slv.sv(66).
# ** Warning: Z:/Documents/GitHub/hmc-qick/firmware/ip/axis_pvp_gen_v2/src/tb/pvp_gen_testing/axis_pvp_gen_v2.sv(162): (vopt-2241) Connection width does not match width of port 's_axil_awprot'. The port definition is at: Z:/Documents/GitHub/hmc-qick/firmware/ip/axis_pvp_gen_v2/src/tb/pvp_gen_testing/axil_slv.sv(67).
# ** Warning: Z:/Documents/GitHub/hmc-qick/firmware/ip/axis_pvp_gen_v2/src/tb/pvp_gen_testing/axis_pvp_gen_v2.sv(162): (vopt-2241) Connection width does not match width of port 's_axil_awvalid'. The port definition is at: Z:/Documents/GitHub/hmc-qick/firmware/ip/axis_pvp_gen_v2/src/tb/pvp_gen_testing/axil_slv.sv(68).
# ** Warning: Z:/Documents/GitHub/hmc-qick/firmware/ip/axis_pvp_gen_v2/src/tb/pvp_gen_testing/axis_pvp_gen_v2.sv(162): (vopt-2241) Connection width does not match width of port 's_axil_awready'. The port definition is at: Z:/Documents/GitHub/hmc-qick/firmware/ip/axis_pvp_gen_v2/src/tb/pvp_gen_testing/axil_slv.sv(69).
# ** Warning: Z:/Documents/GitHub/hmc-qick/firmware/ip/axis_pvp_gen_v2/src/tb/pvp_gen_testing/axis_pvp_gen_v2.sv(162): (vopt-2241) Connection width does not match width of port 's_axil_wdata'. The port definition is at: Z:/Documents/GitHub/hmc-qick/firmware/ip/axis_pvp_gen_v2/src/tb/pvp_gen_testing/axil_slv.sv(70).
# ** Warning: Z:/Documents/GitHub/hmc-qick/firmware/ip/axis_pvp_gen_v2/src/tb/pvp_gen_testing/axis_pvp_gen_v2.sv(162): (vopt-2241) Connection width does not match width of port 's_axil_wstrb'. The port definition is at: Z:/Documents/GitHub/hmc-qick/firmware/ip/axis_pvp_gen_v2/src/tb/pvp_gen_testing/axil_slv.sv(71).
# ** Warning: Z:/Documents/GitHub/hmc-qick/firmware/ip/axis_pvp_gen_v2/src/tb/pvp_gen_testing/axis_pvp_gen_v2.sv(162): (vopt-2241) Connection width does not match width of port 's_axil_wvalid'. The port definition is at: Z:/Documents/GitHub/hmc-qick/firmware/ip/axis_pvp_gen_v2/src/tb/pvp_gen_testing/axil_slv.sv(72).
# ** Warning: Z:/Documents/GitHub/hmc-qick/firmware/ip/axis_pvp_gen_v2/src/tb/pvp_gen_testing/axis_pvp_gen_v2.sv(162): (vopt-2241) Connection width does not match width of port 's_axil_wready'. The port definition is at: Z:/Documents/GitHub/hmc-qick/firmware/ip/axis_pvp_gen_v2/src/tb/pvp_gen_testing/axil_slv.sv(73).
# ** Warning: Z:/Documents/GitHub/hmc-qick/firmware/ip/axis_pvp_gen_v2/src/tb/pvp_gen_testing/axis_pvp_gen_v2.sv(162): (vopt-2241) Connection width does not match width of port 's_axil_bresp'. The port definition is at: Z:/Documents/GitHub/hmc-qick/firmware/ip/axis_pvp_gen_v2/src/tb/pvp_gen_testing/axil_slv.sv(74).
# ** Warning: Z:/Documents/GitHub/hmc-qick/firmware/ip/axis_pvp_gen_v2/src/tb/pvp_gen_testing/axis_pvp_gen_v2.sv(162): (vopt-2241) Connection width does not match width of port 's_axil_bvalid'. The port definition is at: Z:/Documents/GitHub/hmc-qick/firmware/ip/axis_pvp_gen_v2/src/tb/pvp_gen_testing/axil_slv.sv(75).
# ** Warning: Z:/Documents/GitHub/hmc-qick/firmware/ip/axis_pvp_gen_v2/src/tb/pvp_gen_testing/axis_pvp_gen_v2.sv(162): (vopt-2241) Connection width does not match width of port 's_axil_bready'. The port definition is at: Z:/Documents/GitHub/hmc-qick/firmware/ip/axis_pvp_gen_v2/src/tb/pvp_gen_testing/axil_slv.sv(76).
# ** Warning: Z:/Documents/GitHub/hmc-qick/firmware/ip/axis_pvp_gen_v2/src/tb/pvp_gen_testing/axis_pvp_gen_v2.sv(162): (vopt-2241) Connection width does not match width of port 's_axil_araddr'. The port definition is at: Z:/Documents/GitHub/hmc-qick/firmware/ip/axis_pvp_gen_v2/src/tb/pvp_gen_testing/axil_slv.sv(77).
# ** Warning: Z:/Documents/GitHub/hmc-qick/firmware/ip/axis_pvp_gen_v2/src/tb/pvp_gen_testing/axis_pvp_gen_v2.sv(162): (vopt-2241) Connection width does not match width of port 's_axil_arprot'. The port definition is at: Z:/Documents/GitHub/hmc-qick/firmware/ip/axis_pvp_gen_v2/src/tb/pvp_gen_testing/axil_slv.sv(78).
# ** Warning: Z:/Documents/GitHub/hmc-qick/firmware/ip/axis_pvp_gen_v2/src/tb/pvp_gen_testing/axis_pvp_gen_v2.sv(162): (vopt-2241) Connection width does not match width of port 's_axil_arvalid'. The port definition is at: Z:/Documents/GitHub/hmc-qick/firmware/ip/axis_pvp_gen_v2/src/tb/pvp_gen_testing/axil_slv.sv(79).
# ** Warning: Z:/Documents/GitHub/hmc-qick/firmware/ip/axis_pvp_gen_v2/src/tb/pvp_gen_testing/axis_pvp_gen_v2.sv(162): (vopt-2241) Connection width does not match width of port 's_axil_arready'. The port definition is at: Z:/Documents/GitHub/hmc-qick/firmware/ip/axis_pvp_gen_v2/src/tb/pvp_gen_testing/axil_slv.sv(80).
# ** Warning: Z:/Documents/GitHub/hmc-qick/firmware/ip/axis_pvp_gen_v2/src/tb/pvp_gen_testing/axis_pvp_gen_v2.sv(162): (vopt-2241) Connection width does not match width of port 's_axil_rdata'. The port definition is at: Z:/Documents/GitHub/hmc-qick/firmware/ip/axis_pvp_gen_v2/src/tb/pvp_gen_testing/axil_slv.sv(81).
# ** Warning: Z:/Documents/GitHub/hmc-qick/firmware/ip/axis_pvp_gen_v2/src/tb/pvp_gen_testing/axis_pvp_gen_v2.sv(162): (vopt-2241) Connection width does not match width of port 's_axil_rresp'. The port definition is at: Z:/Documents/GitHub/hmc-qick/firmware/ip/axis_pvp_gen_v2/src/tb/pvp_gen_testing/axil_slv.sv(82).
# ** Warning: Z:/Documents/GitHub/hmc-qick/firmware/ip/axis_pvp_gen_v2/src/tb/pvp_gen_testing/axis_pvp_gen_v2.sv(162): (vopt-2241) Connection width does not match width of port 's_axil_rvalid'. The port definition is at: Z:/Documents/GitHub/hmc-qick/firmware/ip/axis_pvp_gen_v2/src/tb/pvp_gen_testing/axil_slv.sv(83).
# ** Warning: Z:/Documents/GitHub/hmc-qick/firmware/ip/axis_pvp_gen_v2/src/tb/pvp_gen_testing/axis_pvp_gen_v2.sv(162): (vopt-2241) Connection width does not match width of port 's_axil_rready'. The port definition is at: Z:/Documents/GitHub/hmc-qick/firmware/ip/axis_pvp_gen_v2/src/tb/pvp_gen_testing/axil_slv.sv(84).
# ** Warning: Z:/Documents/GitHub/hmc-qick/firmware/ip/axis_pvp_gen_v2/src/tb/pvp_gen_testing/axis_pvp_gen_v2.sv(162): (vopt-2241) Connection width does not match width of port 'm_axil_awaddr'. The port definition is at: Z:/Documents/GitHub/hmc-qick/firmware/ip/axis_pvp_gen_v2/src/tb/pvp_gen_testing/axil_slv.sv(89).
# ** Warning: Z:/Documents/GitHub/hmc-qick/firmware/ip/axis_pvp_gen_v2/src/tb/pvp_gen_testing/axis_pvp_gen_v2.sv(162): (vopt-2241) Connection width does not match width of port 'm_axil_awprot'. The port definition is at: Z:/Documents/GitHub/hmc-qick/firmware/ip/axis_pvp_gen_v2/src/tb/pvp_gen_testing/axil_slv.sv(90).
# ** Warning: Z:/Documents/GitHub/hmc-qick/firmware/ip/axis_pvp_gen_v2/src/tb/pvp_gen_testing/axis_pvp_gen_v2.sv(162): (vopt-2241) Connection width does not match width of port 'm_axil_awvalid'. The port definition is at: Z:/Documents/GitHub/hmc-qick/firmware/ip/axis_pvp_gen_v2/src/tb/pvp_gen_testing/axil_slv.sv(91).
# ** Warning: Z:/Documents/GitHub/hmc-qick/firmware/ip/axis_pvp_gen_v2/src/tb/pvp_gen_testing/axis_pvp_gen_v2.sv(162): (vopt-2241) Connection width does not match width of port 'm_axil_awready'. The port definition is at: Z:/Documents/GitHub/hmc-qick/firmware/ip/axis_pvp_gen_v2/src/tb/pvp_gen_testing/axil_slv.sv(92).
# ** Warning: Z:/Documents/GitHub/hmc-qick/firmware/ip/axis_pvp_gen_v2/src/tb/pvp_gen_testing/axis_pvp_gen_v2.sv(162): (vopt-2241) Connection width does not match width of port 'm_axil_wdata'. The port definition is at: Z:/Documents/GitHub/hmc-qick/firmware/ip/axis_pvp_gen_v2/src/tb/pvp_gen_testing/axil_slv.sv(93).
# ** Warning: Z:/Documents/GitHub/hmc-qick/firmware/ip/axis_pvp_gen_v2/src/tb/pvp_gen_testing/axis_pvp_gen_v2.sv(162): (vopt-2241) Connection width does not match width of port 'm_axil_wstrb'. The port definition is at: Z:/Documents/GitHub/hmc-qick/firmware/ip/axis_pvp_gen_v2/src/tb/pvp_gen_testing/axil_slv.sv(94).
# ** Warning: Z:/Documents/GitHub/hmc-qick/firmware/ip/axis_pvp_gen_v2/src/tb/pvp_gen_testing/axis_pvp_gen_v2.sv(162): (vopt-2241) Connection width does not match width of port 'm_axil_wvalid'. The port definition is at: Z:/Documents/GitHub/hmc-qick/firmware/ip/axis_pvp_gen_v2/src/tb/pvp_gen_testing/axil_slv.sv(95).
# ** Warning: Z:/Documents/GitHub/hmc-qick/firmware/ip/axis_pvp_gen_v2/src/tb/pvp_gen_testing/axis_pvp_gen_v2.sv(162): (vopt-2241) Connection width does not match width of port 'm_axil_wready'. The port definition is at: Z:/Documents/GitHub/hmc-qick/firmware/ip/axis_pvp_gen_v2/src/tb/pvp_gen_testing/axil_slv.sv(96).
# ** Warning: Z:/Documents/GitHub/hmc-qick/firmware/ip/axis_pvp_gen_v2/src/tb/pvp_gen_testing/axis_pvp_gen_v2.sv(162): (vopt-2241) Connection width does not match width of port 'm_axil_bresp'. The port definition is at: Z:/Documents/GitHub/hmc-qick/firmware/ip/axis_pvp_gen_v2/src/tb/pvp_gen_testing/axil_slv.sv(97).
# ** Warning: Z:/Documents/GitHub/hmc-qick/firmware/ip/axis_pvp_gen_v2/src/tb/pvp_gen_testing/axis_pvp_gen_v2.sv(162): (vopt-2241) Connection width does not match width of port 'm_axil_bvalid'. The port definition is at: Z:/Documents/GitHub/hmc-qick/firmware/ip/axis_pvp_gen_v2/src/tb/pvp_gen_testing/axil_slv.sv(98).
# ** Warning: Z:/Documents/GitHub/hmc-qick/firmware/ip/axis_pvp_gen_v2/src/tb/pvp_gen_testing/axis_pvp_gen_v2.sv(162): (vopt-2241) Connection width does not match width of port 'm_axil_bready'. The port definition is at: Z:/Documents/GitHub/hmc-qick/firmware/ip/axis_pvp_gen_v2/src/tb/pvp_gen_testing/axil_slv.sv(99).
# ** Warning: Z:/Documents/GitHub/hmc-qick/firmware/ip/axis_pvp_gen_v2/src/tb/pvp_gen_testing/axis_pvp_gen_v2.sv(162): (vopt-2241) Connection width does not match width of port 'm_axil_araddr'. The port definition is at: Z:/Documents/GitHub/hmc-qick/firmware/ip/axis_pvp_gen_v2/src/tb/pvp_gen_testing/axil_slv.sv(100).
# ** Warning: Z:/Documents/GitHub/hmc-qick/firmware/ip/axis_pvp_gen_v2/src/tb/pvp_gen_testing/axis_pvp_gen_v2.sv(162): (vopt-2241) Connection width does not match width of port 'm_axil_arprot'. The port definition is at: Z:/Documents/GitHub/hmc-qick/firmware/ip/axis_pvp_gen_v2/src/tb/pvp_gen_testing/axil_slv.sv(101).
# ** Warning: Z:/Documents/GitHub/hmc-qick/firmware/ip/axis_pvp_gen_v2/src/tb/pvp_gen_testing/axis_pvp_gen_v2.sv(162): (vopt-2241) Connection width does not match width of port 'm_axil_arvalid'. The port definition is at: Z:/Documents/GitHub/hmc-qick/firmware/ip/axis_pvp_gen_v2/src/tb/pvp_gen_testing/axil_slv.sv(102).
# ** Warning: Z:/Documents/GitHub/hmc-qick/firmware/ip/axis_pvp_gen_v2/src/tb/pvp_gen_testing/axis_pvp_gen_v2.sv(162): (vopt-2241) Connection width does not match width of port 'm_axil_arready'. The port definition is at: Z:/Documents/GitHub/hmc-qick/firmware/ip/axis_pvp_gen_v2/src/tb/pvp_gen_testing/axil_slv.sv(103).
# ** Warning: Z:/Documents/GitHub/hmc-qick/firmware/ip/axis_pvp_gen_v2/src/tb/pvp_gen_testing/axis_pvp_gen_v2.sv(162): (vopt-2241) Connection width does not match width of port 'm_axil_rdata'. The port definition is at: Z:/Documents/GitHub/hmc-qick/firmware/ip/axis_pvp_gen_v2/src/tb/pvp_gen_testing/axil_slv.sv(104).
# ** Warning: Z:/Documents/GitHub/hmc-qick/firmware/ip/axis_pvp_gen_v2/src/tb/pvp_gen_testing/axis_pvp_gen_v2.sv(162): (vopt-2241) Connection width does not match width of port 'm_axil_rresp'. The port definition is at: Z:/Documents/GitHub/hmc-qick/firmware/ip/axis_pvp_gen_v2/src/tb/pvp_gen_testing/axil_slv.sv(105).
# ** Warning: Z:/Documents/GitHub/hmc-qick/firmware/ip/axis_pvp_gen_v2/src/tb/pvp_gen_testing/axis_pvp_gen_v2.sv(162): (vopt-2241) Connection width does not match width of port 'm_axil_rvalid'. The port definition is at: Z:/Documents/GitHub/hmc-qick/firmware/ip/axis_pvp_gen_v2/src/tb/pvp_gen_testing/axil_slv.sv(106).
# ** Warning: Z:/Documents/GitHub/hmc-qick/firmware/ip/axis_pvp_gen_v2/src/tb/pvp_gen_testing/axis_pvp_gen_v2.sv(162): (vopt-2241) Connection width does not match width of port 'm_axil_rready'. The port definition is at: Z:/Documents/GitHub/hmc-qick/firmware/ip/axis_pvp_gen_v2/src/tb/pvp_gen_testing/axil_slv.sv(107).
# ** Error (suppressible): Z:/Documents/GitHub/hmc-qick/firmware/ip/axis_pvp_gen_v2/src/tb/pvp_gen_testing/axis_pvp_gen_v2.sv(162): (vopt-2912) Port 'START_VAL_REG' not found in module 'axil_slv' (41st connection).
# ** Error (suppressible): Z:/Documents/GitHub/hmc-qick/firmware/ip/axis_pvp_gen_v2/src/tb/pvp_gen_testing/axis_pvp_gen_v2.sv(162): (vopt-2912) Port 'STEP_SIZE_REG' not found in module 'axil_slv' (42nd connection).
# ** Error (suppressible): Z:/Documents/GitHub/hmc-qick/firmware/ip/axis_pvp_gen_v2/src/tb/pvp_gen_testing/axis_pvp_gen_v2.sv(162): (vopt-2912) Port 'OUTPUT_REG' not found in module 'axil_slv' (43rd connection).
# ** Warning: Z:/Documents/GitHub/hmc-qick/firmware/ip/axis_pvp_gen_v2/src/tb/pvp_gen_testing/axis_pvp_gen_v2_tb.sv(95): (vopt-2241) Connection width does not match width of port 's_axi_awaddr'. The port definition is at: Z:/Documents/GitHub/hmc-qick/firmware/ip/axis_pvp_gen_v2/src/tb/pvp_gen_testing/axis_pvp_gen_v2.sv(12).
# ** Warning: Z:/Documents/GitHub/hmc-qick/firmware/ip/axis_pvp_gen_v2/src/tb/pvp_gen_testing/axis_pvp_gen_v2_tb.sv(95): (vopt-2241) Connection width does not match width of port 's_axi_wdata'. The port definition is at: Z:/Documents/GitHub/hmc-qick/firmware/ip/axis_pvp_gen_v2/src/tb/pvp_gen_testing/axis_pvp_gen_v2.sv(17).
# ** Warning: Z:/Documents/GitHub/hmc-qick/firmware/ip/axis_pvp_gen_v2/src/tb/pvp_gen_testing/axis_pvp_gen_v2_tb.sv(95): (vopt-2241) Connection width does not match width of port 's_axi_araddr'. The port definition is at: Z:/Documents/GitHub/hmc-qick/firmware/ip/axis_pvp_gen_v2/src/tb/pvp_gen_testing/axis_pvp_gen_v2.sv(26).
# ** Warning: Z:/Documents/GitHub/hmc-qick/firmware/ip/axis_pvp_gen_v2/src/tb/pvp_gen_testing/axis_pvp_gen_v2_tb.sv(95): (vopt-2241) Connection width does not match width of port 's_axi_rdata'. The port definition is at: Z:/Documents/GitHub/hmc-qick/firmware/ip/axis_pvp_gen_v2/src/tb/pvp_gen_testing/axis_pvp_gen_v2.sv(31).
# ** Warning: Z:/Documents/GitHub/hmc-qick/firmware/ip/axis_pvp_gen_v2/src/tb/pvp_gen_testing/axis_pvp_gen_v2_tb.sv(95): (vopt-2241) Connection width does not match width of port 's_axi_rresp'. The port definition is at: Z:/Documents/GitHub/hmc-qick/firmware/ip/axis_pvp_gen_v2/src/tb/pvp_gen_testing/axis_pvp_gen_v2.sv(32).
# ** Warning: Z:/Documents/GitHub/hmc-qick/firmware/ip/axis_pvp_gen_v2/src/tb/pvp_gen_testing/axis_pvp_gen_v2_tb.sv(95): (vopt-2241) Connection width does not match width of port 'm_axi_awaddr'. The port definition is at: Z:/Documents/GitHub/hmc-qick/firmware/ip/axis_pvp_gen_v2/src/tb/pvp_gen_testing/axis_pvp_gen_v2.sv(37).
# ** Warning: Z:/Documents/GitHub/hmc-qick/firmware/ip/axis_pvp_gen_v2/src/tb/pvp_gen_testing/axis_pvp_gen_v2_tb.sv(95): (vopt-2241) Connection width does not match width of port 'm_axi_wdata'. The port definition is at: Z:/Documents/GitHub/hmc-qick/firmware/ip/axis_pvp_gen_v2/src/tb/pvp_gen_testing/axis_pvp_gen_v2.sv(42).
# ** Warning: Z:/Documents/GitHub/hmc-qick/firmware/ip/axis_pvp_gen_v2/src/tb/pvp_gen_testing/axis_pvp_gen_v2_tb.sv(95): (vopt-2241) Connection width does not match width of port 'm_axi_araddr'. The port definition is at: Z:/Documents/GitHub/hmc-qick/firmware/ip/axis_pvp_gen_v2/src/tb/pvp_gen_testing/axis_pvp_gen_v2.sv(51).
# ** Warning: Z:/Documents/GitHub/hmc-qick/firmware/ip/axis_pvp_gen_v2/src/tb/pvp_gen_testing/axis_pvp_gen_v2_tb.sv(95): (vopt-2241) Connection width does not match width of port 'm_axi_rdata'. The port definition is at: Z:/Documents/GitHub/hmc-qick/firmware/ip/axis_pvp_gen_v2/src/tb/pvp_gen_testing/axis_pvp_gen_v2.sv(56).
# ** Warning: Z:/Documents/GitHub/hmc-qick/firmware/ip/axis_pvp_gen_v2/src/tb/pvp_gen_testing/axis_pvp_gen_v2_tb.sv(95): (vopt-2241) Connection width does not match width of port 'm_axi_rresp'. The port definition is at: Z:/Documents/GitHub/hmc-qick/firmware/ip/axis_pvp_gen_v2/src/tb/pvp_gen_testing/axis_pvp_gen_v2.sv(57).
# Optimization failed
# ** Note: (vsim-12126) Error and warning message counts have been restored: Errors=3, Warnings=54.
# Error loading design
# End time: 00:17:43 on Feb 27,2025, Elapsed time: 0:00:04
# Errors: 3, Warnings: 55
# A time value could not be extracted from the current line
# Compile of axis_pvp_gen_v2_tb.sv was successful.
# Compile of axi_lite_master.sv was successful.
# Compile of axil_slv.sv was successful.
# Compile of axis_pvp_gen_v2.sv was successful.
# Compile of no_mem_sweep.sv was successful.
# Compile of arbiter.v was successful.
# Compile of priority_encoder.v was successful.
# Compile of axi_spi_simple.vhd was successful.
# 8 compiles, 0 failed with no errors.
vsim -gui work.axis_pvp_gen_v2_tb
# vsim -gui work.axis_pvp_gen_v2_tb 
# Start time: 00:26:04 on Feb 27,2025
# ** Note: (vsim-3812) Design is being optimized...
# ** Warning: Z:/Documents/GitHub/hmc-qick/firmware/ip/axis_pvp_gen_v2/src/tb/pvp_gen_testing/axi_spi_simple.vhd(153): (vopt-3473) Component instance "U0 : spi_peripheral" is not bound.
#         Region: axis_pvp_gen_v2_tb.axi_spi_i
# ** Warning: Z:/Documents/GitHub/hmc-qick/firmware/ip/axis_pvp_gen_v2/src/tb/pvp_gen_testing/axi_spi_simple.vhd(178): (vopt-3473) Component instance "U1 : axi4_lite_interface_v1_0" is not bound.
#         Region: axis_pvp_gen_v2_tb.axi_spi_i
# ** Warning: Z:/Documents/GitHub/hmc-qick/firmware/ip/axis_pvp_gen_v2/src/tb/pvp_gen_testing/axis_pvp_gen_v2_tb.sv(161): (vopt-2241) Connection width does not match width of port 'M_AXI_RDATA'. The port definition is at: Z:/Documents/GitHub/hmc-qick/firmware/ip/axis_pvp_gen_v2/src/tb/pvp_gen_testing/axi_lite_master.sv(52).
# ** Warning: Z:/Documents/GitHub/hmc-qick/firmware/ip/axis_pvp_gen_v2/src/tb/pvp_gen_testing/axis_pvp_gen_v2_tb.sv(161): (vopt-2241) Connection width does not match width of port 'M_AXI_RRESP'. The port definition is at: Z:/Documents/GitHub/hmc-qick/firmware/ip/axis_pvp_gen_v2/src/tb/pvp_gen_testing/axi_lite_master.sv(53).
# ** Warning: Z:/Documents/GitHub/hmc-qick/firmware/ip/axis_pvp_gen_v2/src/tb/pvp_gen_testing/axis_pvp_gen_v2.sv(237): (vopt-2241) Connection width does not match width of port 'mosi'. The port definition is at: Z:/Documents/GitHub/hmc-qick/firmware/ip/axis_pvp_gen_v2/src/no_mem_sweep.sv(18).
# ** Warning: Z:/Documents/GitHub/hmc-qick/firmware/ip/axis_pvp_gen_v2/src/tb/pvp_gen_testing/axis_pvp_gen_v2.sv(162): (vopt-2241) Connection width does not match width of port 's_axil_awaddr'. The port definition is at: Z:/Documents/GitHub/hmc-qick/firmware/ip/axis_pvp_gen_v2/src/tb/pvp_gen_testing/axil_slv.sv(66).
# ** Warning: Z:/Documents/GitHub/hmc-qick/firmware/ip/axis_pvp_gen_v2/src/tb/pvp_gen_testing/axis_pvp_gen_v2.sv(162): (vopt-2241) Connection width does not match width of port 's_axil_awprot'. The port definition is at: Z:/Documents/GitHub/hmc-qick/firmware/ip/axis_pvp_gen_v2/src/tb/pvp_gen_testing/axil_slv.sv(67).
# ** Warning: Z:/Documents/GitHub/hmc-qick/firmware/ip/axis_pvp_gen_v2/src/tb/pvp_gen_testing/axis_pvp_gen_v2.sv(162): (vopt-2241) Connection width does not match width of port 's_axil_awvalid'. The port definition is at: Z:/Documents/GitHub/hmc-qick/firmware/ip/axis_pvp_gen_v2/src/tb/pvp_gen_testing/axil_slv.sv(68).
# ** Warning: Z:/Documents/GitHub/hmc-qick/firmware/ip/axis_pvp_gen_v2/src/tb/pvp_gen_testing/axis_pvp_gen_v2.sv(162): (vopt-2241) Connection width does not match width of port 's_axil_awready'. The port definition is at: Z:/Documents/GitHub/hmc-qick/firmware/ip/axis_pvp_gen_v2/src/tb/pvp_gen_testing/axil_slv.sv(69).
# ** Warning: Z:/Documents/GitHub/hmc-qick/firmware/ip/axis_pvp_gen_v2/src/tb/pvp_gen_testing/axis_pvp_gen_v2.sv(162): (vopt-2241) Connection width does not match width of port 's_axil_wdata'. The port definition is at: Z:/Documents/GitHub/hmc-qick/firmware/ip/axis_pvp_gen_v2/src/tb/pvp_gen_testing/axil_slv.sv(70).
# ** Warning: Z:/Documents/GitHub/hmc-qick/firmware/ip/axis_pvp_gen_v2/src/tb/pvp_gen_testing/axis_pvp_gen_v2.sv(162): (vopt-2241) Connection width does not match width of port 's_axil_wstrb'. The port definition is at: Z:/Documents/GitHub/hmc-qick/firmware/ip/axis_pvp_gen_v2/src/tb/pvp_gen_testing/axil_slv.sv(71).
# ** Warning: Z:/Documents/GitHub/hmc-qick/firmware/ip/axis_pvp_gen_v2/src/tb/pvp_gen_testing/axis_pvp_gen_v2.sv(162): (vopt-2241) Connection width does not match width of port 's_axil_wvalid'. The port definition is at: Z:/Documents/GitHub/hmc-qick/firmware/ip/axis_pvp_gen_v2/src/tb/pvp_gen_testing/axil_slv.sv(72).
# ** Warning: Z:/Documents/GitHub/hmc-qick/firmware/ip/axis_pvp_gen_v2/src/tb/pvp_gen_testing/axis_pvp_gen_v2.sv(162): (vopt-2241) Connection width does not match width of port 's_axil_wready'. The port definition is at: Z:/Documents/GitHub/hmc-qick/firmware/ip/axis_pvp_gen_v2/src/tb/pvp_gen_testing/axil_slv.sv(73).
# ** Warning: Z:/Documents/GitHub/hmc-qick/firmware/ip/axis_pvp_gen_v2/src/tb/pvp_gen_testing/axis_pvp_gen_v2.sv(162): (vopt-2241) Connection width does not match width of port 's_axil_bresp'. The port definition is at: Z:/Documents/GitHub/hmc-qick/firmware/ip/axis_pvp_gen_v2/src/tb/pvp_gen_testing/axil_slv.sv(74).
# ** Warning: Z:/Documents/GitHub/hmc-qick/firmware/ip/axis_pvp_gen_v2/src/tb/pvp_gen_testing/axis_pvp_gen_v2.sv(162): (vopt-2241) Connection width does not match width of port 's_axil_bvalid'. The port definition is at: Z:/Documents/GitHub/hmc-qick/firmware/ip/axis_pvp_gen_v2/src/tb/pvp_gen_testing/axil_slv.sv(75).
# ** Warning: Z:/Documents/GitHub/hmc-qick/firmware/ip/axis_pvp_gen_v2/src/tb/pvp_gen_testing/axis_pvp_gen_v2.sv(162): (vopt-2241) Connection width does not match width of port 's_axil_bready'. The port definition is at: Z:/Documents/GitHub/hmc-qick/firmware/ip/axis_pvp_gen_v2/src/tb/pvp_gen_testing/axil_slv.sv(76).
# ** Warning: Z:/Documents/GitHub/hmc-qick/firmware/ip/axis_pvp_gen_v2/src/tb/pvp_gen_testing/axis_pvp_gen_v2.sv(162): (vopt-2241) Connection width does not match width of port 's_axil_araddr'. The port definition is at: Z:/Documents/GitHub/hmc-qick/firmware/ip/axis_pvp_gen_v2/src/tb/pvp_gen_testing/axil_slv.sv(77).
# ** Warning: Z:/Documents/GitHub/hmc-qick/firmware/ip/axis_pvp_gen_v2/src/tb/pvp_gen_testing/axis_pvp_gen_v2.sv(162): (vopt-2241) Connection width does not match width of port 's_axil_arprot'. The port definition is at: Z:/Documents/GitHub/hmc-qick/firmware/ip/axis_pvp_gen_v2/src/tb/pvp_gen_testing/axil_slv.sv(78).
# ** Warning: Z:/Documents/GitHub/hmc-qick/firmware/ip/axis_pvp_gen_v2/src/tb/pvp_gen_testing/axis_pvp_gen_v2.sv(162): (vopt-2241) Connection width does not match width of port 's_axil_arvalid'. The port definition is at: Z:/Documents/GitHub/hmc-qick/firmware/ip/axis_pvp_gen_v2/src/tb/pvp_gen_testing/axil_slv.sv(79).
# ** Warning: Z:/Documents/GitHub/hmc-qick/firmware/ip/axis_pvp_gen_v2/src/tb/pvp_gen_testing/axis_pvp_gen_v2.sv(162): (vopt-2241) Connection width does not match width of port 's_axil_arready'. The port definition is at: Z:/Documents/GitHub/hmc-qick/firmware/ip/axis_pvp_gen_v2/src/tb/pvp_gen_testing/axil_slv.sv(80).
# ** Warning: Z:/Documents/GitHub/hmc-qick/firmware/ip/axis_pvp_gen_v2/src/tb/pvp_gen_testing/axis_pvp_gen_v2.sv(162): (vopt-2241) Connection width does not match width of port 's_axil_rdata'. The port definition is at: Z:/Documents/GitHub/hmc-qick/firmware/ip/axis_pvp_gen_v2/src/tb/pvp_gen_testing/axil_slv.sv(81).
# ** Warning: Z:/Documents/GitHub/hmc-qick/firmware/ip/axis_pvp_gen_v2/src/tb/pvp_gen_testing/axis_pvp_gen_v2.sv(162): (vopt-2241) Connection width does not match width of port 's_axil_rresp'. The port definition is at: Z:/Documents/GitHub/hmc-qick/firmware/ip/axis_pvp_gen_v2/src/tb/pvp_gen_testing/axil_slv.sv(82).
# ** Warning: Z:/Documents/GitHub/hmc-qick/firmware/ip/axis_pvp_gen_v2/src/tb/pvp_gen_testing/axis_pvp_gen_v2.sv(162): (vopt-2241) Connection width does not match width of port 's_axil_rvalid'. The port definition is at: Z:/Documents/GitHub/hmc-qick/firmware/ip/axis_pvp_gen_v2/src/tb/pvp_gen_testing/axil_slv.sv(83).
# ** Warning: Z:/Documents/GitHub/hmc-qick/firmware/ip/axis_pvp_gen_v2/src/tb/pvp_gen_testing/axis_pvp_gen_v2.sv(162): (vopt-2241) Connection width does not match width of port 's_axil_rready'. The port definition is at: Z:/Documents/GitHub/hmc-qick/firmware/ip/axis_pvp_gen_v2/src/tb/pvp_gen_testing/axil_slv.sv(84).
# ** Warning: Z:/Documents/GitHub/hmc-qick/firmware/ip/axis_pvp_gen_v2/src/tb/pvp_gen_testing/axis_pvp_gen_v2.sv(162): (vopt-2241) Connection width does not match width of port 'm_axil_awaddr'. The port definition is at: Z:/Documents/GitHub/hmc-qick/firmware/ip/axis_pvp_gen_v2/src/tb/pvp_gen_testing/axil_slv.sv(89).
# ** Warning: Z:/Documents/GitHub/hmc-qick/firmware/ip/axis_pvp_gen_v2/src/tb/pvp_gen_testing/axis_pvp_gen_v2.sv(162): (vopt-2241) Connection width does not match width of port 'm_axil_awprot'. The port definition is at: Z:/Documents/GitHub/hmc-qick/firmware/ip/axis_pvp_gen_v2/src/tb/pvp_gen_testing/axil_slv.sv(90).
# ** Warning: Z:/Documents/GitHub/hmc-qick/firmware/ip/axis_pvp_gen_v2/src/tb/pvp_gen_testing/axis_pvp_gen_v2.sv(162): (vopt-2241) Connection width does not match width of port 'm_axil_awvalid'. The port definition is at: Z:/Documents/GitHub/hmc-qick/firmware/ip/axis_pvp_gen_v2/src/tb/pvp_gen_testing/axil_slv.sv(91).
# ** Warning: Z:/Documents/GitHub/hmc-qick/firmware/ip/axis_pvp_gen_v2/src/tb/pvp_gen_testing/axis_pvp_gen_v2.sv(162): (vopt-2241) Connection width does not match width of port 'm_axil_awready'. The port definition is at: Z:/Documents/GitHub/hmc-qick/firmware/ip/axis_pvp_gen_v2/src/tb/pvp_gen_testing/axil_slv.sv(92).
# ** Warning: Z:/Documents/GitHub/hmc-qick/firmware/ip/axis_pvp_gen_v2/src/tb/pvp_gen_testing/axis_pvp_gen_v2.sv(162): (vopt-2241) Connection width does not match width of port 'm_axil_wdata'. The port definition is at: Z:/Documents/GitHub/hmc-qick/firmware/ip/axis_pvp_gen_v2/src/tb/pvp_gen_testing/axil_slv.sv(93).
# ** Warning: Z:/Documents/GitHub/hmc-qick/firmware/ip/axis_pvp_gen_v2/src/tb/pvp_gen_testing/axis_pvp_gen_v2.sv(162): (vopt-2241) Connection width does not match width of port 'm_axil_wstrb'. The port definition is at: Z:/Documents/GitHub/hmc-qick/firmware/ip/axis_pvp_gen_v2/src/tb/pvp_gen_testing/axil_slv.sv(94).
# ** Warning: Z:/Documents/GitHub/hmc-qick/firmware/ip/axis_pvp_gen_v2/src/tb/pvp_gen_testing/axis_pvp_gen_v2.sv(162): (vopt-2241) Connection width does not match width of port 'm_axil_wvalid'. The port definition is at: Z:/Documents/GitHub/hmc-qick/firmware/ip/axis_pvp_gen_v2/src/tb/pvp_gen_testing/axil_slv.sv(95).
# ** Warning: Z:/Documents/GitHub/hmc-qick/firmware/ip/axis_pvp_gen_v2/src/tb/pvp_gen_testing/axis_pvp_gen_v2.sv(162): (vopt-2241) Connection width does not match width of port 'm_axil_wready'. The port definition is at: Z:/Documents/GitHub/hmc-qick/firmware/ip/axis_pvp_gen_v2/src/tb/pvp_gen_testing/axil_slv.sv(96).
# ** Warning: Z:/Documents/GitHub/hmc-qick/firmware/ip/axis_pvp_gen_v2/src/tb/pvp_gen_testing/axis_pvp_gen_v2.sv(162): (vopt-2241) Connection width does not match width of port 'm_axil_bresp'. The port definition is at: Z:/Documents/GitHub/hmc-qick/firmware/ip/axis_pvp_gen_v2/src/tb/pvp_gen_testing/axil_slv.sv(97).
# ** Warning: Z:/Documents/GitHub/hmc-qick/firmware/ip/axis_pvp_gen_v2/src/tb/pvp_gen_testing/axis_pvp_gen_v2.sv(162): (vopt-2241) Connection width does not match width of port 'm_axil_bvalid'. The port definition is at: Z:/Documents/GitHub/hmc-qick/firmware/ip/axis_pvp_gen_v2/src/tb/pvp_gen_testing/axil_slv.sv(98).
# ** Warning: Z:/Documents/GitHub/hmc-qick/firmware/ip/axis_pvp_gen_v2/src/tb/pvp_gen_testing/axis_pvp_gen_v2.sv(162): (vopt-2241) Connection width does not match width of port 'm_axil_bready'. The port definition is at: Z:/Documents/GitHub/hmc-qick/firmware/ip/axis_pvp_gen_v2/src/tb/pvp_gen_testing/axil_slv.sv(99).
# ** Warning: Z:/Documents/GitHub/hmc-qick/firmware/ip/axis_pvp_gen_v2/src/tb/pvp_gen_testing/axis_pvp_gen_v2.sv(162): (vopt-2241) Connection width does not match width of port 'm_axil_araddr'. The port definition is at: Z:/Documents/GitHub/hmc-qick/firmware/ip/axis_pvp_gen_v2/src/tb/pvp_gen_testing/axil_slv.sv(100).
# ** Warning: Z:/Documents/GitHub/hmc-qick/firmware/ip/axis_pvp_gen_v2/src/tb/pvp_gen_testing/axis_pvp_gen_v2.sv(162): (vopt-2241) Connection width does not match width of port 'm_axil_arprot'. The port definition is at: Z:/Documents/GitHub/hmc-qick/firmware/ip/axis_pvp_gen_v2/src/tb/pvp_gen_testing/axil_slv.sv(101).
# ** Warning: Z:/Documents/GitHub/hmc-qick/firmware/ip/axis_pvp_gen_v2/src/tb/pvp_gen_testing/axis_pvp_gen_v2.sv(162): (vopt-2241) Connection width does not match width of port 'm_axil_arvalid'. The port definition is at: Z:/Documents/GitHub/hmc-qick/firmware/ip/axis_pvp_gen_v2/src/tb/pvp_gen_testing/axil_slv.sv(102).
# ** Warning: Z:/Documents/GitHub/hmc-qick/firmware/ip/axis_pvp_gen_v2/src/tb/pvp_gen_testing/axis_pvp_gen_v2.sv(162): (vopt-2241) Connection width does not match width of port 'm_axil_arready'. The port definition is at: Z:/Documents/GitHub/hmc-qick/firmware/ip/axis_pvp_gen_v2/src/tb/pvp_gen_testing/axil_slv.sv(103).
# ** Warning: Z:/Documents/GitHub/hmc-qick/firmware/ip/axis_pvp_gen_v2/src/tb/pvp_gen_testing/axis_pvp_gen_v2.sv(162): (vopt-2241) Connection width does not match width of port 'm_axil_rdata'. The port definition is at: Z:/Documents/GitHub/hmc-qick/firmware/ip/axis_pvp_gen_v2/src/tb/pvp_gen_testing/axil_slv.sv(104).
# ** Warning: Z:/Documents/GitHub/hmc-qick/firmware/ip/axis_pvp_gen_v2/src/tb/pvp_gen_testing/axis_pvp_gen_v2.sv(162): (vopt-2241) Connection width does not match width of port 'm_axil_rresp'. The port definition is at: Z:/Documents/GitHub/hmc-qick/firmware/ip/axis_pvp_gen_v2/src/tb/pvp_gen_testing/axil_slv.sv(105).
# ** Warning: Z:/Documents/GitHub/hmc-qick/firmware/ip/axis_pvp_gen_v2/src/tb/pvp_gen_testing/axis_pvp_gen_v2.sv(162): (vopt-2241) Connection width does not match width of port 'm_axil_rvalid'. The port definition is at: Z:/Documents/GitHub/hmc-qick/firmware/ip/axis_pvp_gen_v2/src/tb/pvp_gen_testing/axil_slv.sv(106).
# ** Warning: Z:/Documents/GitHub/hmc-qick/firmware/ip/axis_pvp_gen_v2/src/tb/pvp_gen_testing/axis_pvp_gen_v2.sv(162): (vopt-2241) Connection width does not match width of port 'm_axil_rready'. The port definition is at: Z:/Documents/GitHub/hmc-qick/firmware/ip/axis_pvp_gen_v2/src/tb/pvp_gen_testing/axil_slv.sv(107).
# ** Error (suppressible): Z:/Documents/GitHub/hmc-qick/firmware/ip/axis_pvp_gen_v2/src/tb/pvp_gen_testing/axis_pvp_gen_v2.sv(162): (vopt-2912) Port 'START_VAL_REG' not found in module 'axil_slv' (41st connection).
# ** Error (suppressible): Z:/Documents/GitHub/hmc-qick/firmware/ip/axis_pvp_gen_v2/src/tb/pvp_gen_testing/axis_pvp_gen_v2.sv(162): (vopt-2912) Port 'STEP_SIZE_REG' not found in module 'axil_slv' (42nd connection).
# ** Error (suppressible): Z:/Documents/GitHub/hmc-qick/firmware/ip/axis_pvp_gen_v2/src/tb/pvp_gen_testing/axis_pvp_gen_v2.sv(162): (vopt-2912) Port 'OUTPUT_REG' not found in module 'axil_slv' (43rd connection).
# ** Warning: Z:/Documents/GitHub/hmc-qick/firmware/ip/axis_pvp_gen_v2/src/tb/pvp_gen_testing/axis_pvp_gen_v2_tb.sv(98): (vopt-2241) Connection width does not match width of port 's_axi_awaddr'. The port definition is at: Z:/Documents/GitHub/hmc-qick/firmware/ip/axis_pvp_gen_v2/src/tb/pvp_gen_testing/axis_pvp_gen_v2.sv(12).
# ** Warning: Z:/Documents/GitHub/hmc-qick/firmware/ip/axis_pvp_gen_v2/src/tb/pvp_gen_testing/axis_pvp_gen_v2_tb.sv(98): (vopt-2241) Connection width does not match width of port 's_axi_araddr'. The port definition is at: Z:/Documents/GitHub/hmc-qick/firmware/ip/axis_pvp_gen_v2/src/tb/pvp_gen_testing/axis_pvp_gen_v2.sv(26).
# ** Warning: Z:/Documents/GitHub/hmc-qick/firmware/ip/axis_pvp_gen_v2/src/tb/pvp_gen_testing/axis_pvp_gen_v2_tb.sv(98): (vopt-2241) Connection width does not match width of port 's_axi_rdata'. The port definition is at: Z:/Documents/GitHub/hmc-qick/firmware/ip/axis_pvp_gen_v2/src/tb/pvp_gen_testing/axis_pvp_gen_v2.sv(31).
# ** Warning: Z:/Documents/GitHub/hmc-qick/firmware/ip/axis_pvp_gen_v2/src/tb/pvp_gen_testing/axis_pvp_gen_v2_tb.sv(98): (vopt-2241) Connection width does not match width of port 's_axi_rresp'. The port definition is at: Z:/Documents/GitHub/hmc-qick/firmware/ip/axis_pvp_gen_v2/src/tb/pvp_gen_testing/axis_pvp_gen_v2.sv(32).
# ** Warning: Z:/Documents/GitHub/hmc-qick/firmware/ip/axis_pvp_gen_v2/src/tb/pvp_gen_testing/axis_pvp_gen_v2_tb.sv(98): (vopt-2241) Connection width does not match width of port 'm_axi_awaddr'. The port definition is at: Z:/Documents/GitHub/hmc-qick/firmware/ip/axis_pvp_gen_v2/src/tb/pvp_gen_testing/axis_pvp_gen_v2.sv(37).
# ** Warning: Z:/Documents/GitHub/hmc-qick/firmware/ip/axis_pvp_gen_v2/src/tb/pvp_gen_testing/axis_pvp_gen_v2_tb.sv(98): (vopt-2241) Connection width does not match width of port 'm_axi_araddr'. The port definition is at: Z:/Documents/GitHub/hmc-qick/firmware/ip/axis_pvp_gen_v2/src/tb/pvp_gen_testing/axis_pvp_gen_v2.sv(51).
# ** Warning: Z:/Documents/GitHub/hmc-qick/firmware/ip/axis_pvp_gen_v2/src/tb/pvp_gen_testing/axis_pvp_gen_v2_tb.sv(98): (vopt-2241) Connection width does not match width of port 'm_axi_rdata'. The port definition is at: Z:/Documents/GitHub/hmc-qick/firmware/ip/axis_pvp_gen_v2/src/tb/pvp_gen_testing/axis_pvp_gen_v2.sv(56).
# ** Warning: Z:/Documents/GitHub/hmc-qick/firmware/ip/axis_pvp_gen_v2/src/tb/pvp_gen_testing/axis_pvp_gen_v2_tb.sv(98): (vopt-2241) Connection width does not match width of port 'm_axi_rresp'. The port definition is at: Z:/Documents/GitHub/hmc-qick/firmware/ip/axis_pvp_gen_v2/src/tb/pvp_gen_testing/axis_pvp_gen_v2.sv(57).
# Optimization failed
# ** Note: (vsim-12126) Error and warning message counts have been restored: Errors=3, Warnings=51.
# Error loading design
# End time: 00:26:08 on Feb 27,2025, Elapsed time: 0:00:04
# Errors: 3, Warnings: 53
# Compile of axis_pvp_gen_v2_tb.sv was successful.
# Compile of axi_lite_master.sv was successful.
# Compile of axil_slv.sv was successful.
# Compile of axis_pvp_gen_v2.sv was successful.
# Compile of no_mem_sweep.sv was successful.
# Compile of arbiter.v was successful.
# Compile of priority_encoder.v was successful.
# Compile of axi_spi_simple.vhd was successful.
# 8 compiles, 0 failed with no errors.
vsim -gui work.axis_pvp_gen_v2_tb
# vsim -gui work.axis_pvp_gen_v2_tb 
# Start time: 00:27:21 on Feb 27,2025
# ** Note: (vsim-3812) Design is being optimized...
# ** Warning: Z:/Documents/GitHub/hmc-qick/firmware/ip/axis_pvp_gen_v2/src/tb/pvp_gen_testing/axi_spi_simple.vhd(153): (vopt-3473) Component instance "U0 : spi_peripheral" is not bound.
#         Region: axis_pvp_gen_v2_tb.axi_spi_i
# ** Warning: Z:/Documents/GitHub/hmc-qick/firmware/ip/axis_pvp_gen_v2/src/tb/pvp_gen_testing/axi_spi_simple.vhd(178): (vopt-3473) Component instance "U1 : axi4_lite_interface_v1_0" is not bound.
#         Region: axis_pvp_gen_v2_tb.axi_spi_i
# ** Warning: Z:/Documents/GitHub/hmc-qick/firmware/ip/axis_pvp_gen_v2/src/tb/pvp_gen_testing/axis_pvp_gen_v2_tb.sv(163): (vopt-2241) Connection width does not match width of port 'M_AXI_RRESP'. The port definition is at: Z:/Documents/GitHub/hmc-qick/firmware/ip/axis_pvp_gen_v2/src/tb/pvp_gen_testing/axi_lite_master.sv(53).
# ** Warning: Z:/Documents/GitHub/hmc-qick/firmware/ip/axis_pvp_gen_v2/src/tb/pvp_gen_testing/axis_pvp_gen_v2.sv(237): (vopt-2241) Connection width does not match width of port 'mosi'. The port definition is at: Z:/Documents/GitHub/hmc-qick/firmware/ip/axis_pvp_gen_v2/src/no_mem_sweep.sv(18).
# ** Warning: Z:/Documents/GitHub/hmc-qick/firmware/ip/axis_pvp_gen_v2/src/tb/pvp_gen_testing/axis_pvp_gen_v2.sv(162): (vopt-2241) Connection width does not match width of port 's_axil_awaddr'. The port definition is at: Z:/Documents/GitHub/hmc-qick/firmware/ip/axis_pvp_gen_v2/src/tb/pvp_gen_testing/axil_slv.sv(66).
# ** Warning: Z:/Documents/GitHub/hmc-qick/firmware/ip/axis_pvp_gen_v2/src/tb/pvp_gen_testing/axis_pvp_gen_v2.sv(162): (vopt-2241) Connection width does not match width of port 's_axil_awprot'. The port definition is at: Z:/Documents/GitHub/hmc-qick/firmware/ip/axis_pvp_gen_v2/src/tb/pvp_gen_testing/axil_slv.sv(67).
# ** Warning: Z:/Documents/GitHub/hmc-qick/firmware/ip/axis_pvp_gen_v2/src/tb/pvp_gen_testing/axis_pvp_gen_v2.sv(162): (vopt-2241) Connection width does not match width of port 's_axil_awvalid'. The port definition is at: Z:/Documents/GitHub/hmc-qick/firmware/ip/axis_pvp_gen_v2/src/tb/pvp_gen_testing/axil_slv.sv(68).
# ** Warning: Z:/Documents/GitHub/hmc-qick/firmware/ip/axis_pvp_gen_v2/src/tb/pvp_gen_testing/axis_pvp_gen_v2.sv(162): (vopt-2241) Connection width does not match width of port 's_axil_awready'. The port definition is at: Z:/Documents/GitHub/hmc-qick/firmware/ip/axis_pvp_gen_v2/src/tb/pvp_gen_testing/axil_slv.sv(69).
# ** Warning: Z:/Documents/GitHub/hmc-qick/firmware/ip/axis_pvp_gen_v2/src/tb/pvp_gen_testing/axis_pvp_gen_v2.sv(162): (vopt-2241) Connection width does not match width of port 's_axil_wdata'. The port definition is at: Z:/Documents/GitHub/hmc-qick/firmware/ip/axis_pvp_gen_v2/src/tb/pvp_gen_testing/axil_slv.sv(70).
# ** Warning: Z:/Documents/GitHub/hmc-qick/firmware/ip/axis_pvp_gen_v2/src/tb/pvp_gen_testing/axis_pvp_gen_v2.sv(162): (vopt-2241) Connection width does not match width of port 's_axil_wstrb'. The port definition is at: Z:/Documents/GitHub/hmc-qick/firmware/ip/axis_pvp_gen_v2/src/tb/pvp_gen_testing/axil_slv.sv(71).
# ** Warning: Z:/Documents/GitHub/hmc-qick/firmware/ip/axis_pvp_gen_v2/src/tb/pvp_gen_testing/axis_pvp_gen_v2.sv(162): (vopt-2241) Connection width does not match width of port 's_axil_wvalid'. The port definition is at: Z:/Documents/GitHub/hmc-qick/firmware/ip/axis_pvp_gen_v2/src/tb/pvp_gen_testing/axil_slv.sv(72).
# ** Warning: Z:/Documents/GitHub/hmc-qick/firmware/ip/axis_pvp_gen_v2/src/tb/pvp_gen_testing/axis_pvp_gen_v2.sv(162): (vopt-2241) Connection width does not match width of port 's_axil_wready'. The port definition is at: Z:/Documents/GitHub/hmc-qick/firmware/ip/axis_pvp_gen_v2/src/tb/pvp_gen_testing/axil_slv.sv(73).
# ** Warning: Z:/Documents/GitHub/hmc-qick/firmware/ip/axis_pvp_gen_v2/src/tb/pvp_gen_testing/axis_pvp_gen_v2.sv(162): (vopt-2241) Connection width does not match width of port 's_axil_bresp'. The port definition is at: Z:/Documents/GitHub/hmc-qick/firmware/ip/axis_pvp_gen_v2/src/tb/pvp_gen_testing/axil_slv.sv(74).
# ** Warning: Z:/Documents/GitHub/hmc-qick/firmware/ip/axis_pvp_gen_v2/src/tb/pvp_gen_testing/axis_pvp_gen_v2.sv(162): (vopt-2241) Connection width does not match width of port 's_axil_bvalid'. The port definition is at: Z:/Documents/GitHub/hmc-qick/firmware/ip/axis_pvp_gen_v2/src/tb/pvp_gen_testing/axil_slv.sv(75).
# ** Warning: Z:/Documents/GitHub/hmc-qick/firmware/ip/axis_pvp_gen_v2/src/tb/pvp_gen_testing/axis_pvp_gen_v2.sv(162): (vopt-2241) Connection width does not match width of port 's_axil_bready'. The port definition is at: Z:/Documents/GitHub/hmc-qick/firmware/ip/axis_pvp_gen_v2/src/tb/pvp_gen_testing/axil_slv.sv(76).
# ** Warning: Z:/Documents/GitHub/hmc-qick/firmware/ip/axis_pvp_gen_v2/src/tb/pvp_gen_testing/axis_pvp_gen_v2.sv(162): (vopt-2241) Connection width does not match width of port 's_axil_araddr'. The port definition is at: Z:/Documents/GitHub/hmc-qick/firmware/ip/axis_pvp_gen_v2/src/tb/pvp_gen_testing/axil_slv.sv(77).
# ** Warning: Z:/Documents/GitHub/hmc-qick/firmware/ip/axis_pvp_gen_v2/src/tb/pvp_gen_testing/axis_pvp_gen_v2.sv(162): (vopt-2241) Connection width does not match width of port 's_axil_arprot'. The port definition is at: Z:/Documents/GitHub/hmc-qick/firmware/ip/axis_pvp_gen_v2/src/tb/pvp_gen_testing/axil_slv.sv(78).
# ** Warning: Z:/Documents/GitHub/hmc-qick/firmware/ip/axis_pvp_gen_v2/src/tb/pvp_gen_testing/axis_pvp_gen_v2.sv(162): (vopt-2241) Connection width does not match width of port 's_axil_arvalid'. The port definition is at: Z:/Documents/GitHub/hmc-qick/firmware/ip/axis_pvp_gen_v2/src/tb/pvp_gen_testing/axil_slv.sv(79).
# ** Warning: Z:/Documents/GitHub/hmc-qick/firmware/ip/axis_pvp_gen_v2/src/tb/pvp_gen_testing/axis_pvp_gen_v2.sv(162): (vopt-2241) Connection width does not match width of port 's_axil_arready'. The port definition is at: Z:/Documents/GitHub/hmc-qick/firmware/ip/axis_pvp_gen_v2/src/tb/pvp_gen_testing/axil_slv.sv(80).
# ** Warning: Z:/Documents/GitHub/hmc-qick/firmware/ip/axis_pvp_gen_v2/src/tb/pvp_gen_testing/axis_pvp_gen_v2.sv(162): (vopt-2241) Connection width does not match width of port 's_axil_rdata'. The port definition is at: Z:/Documents/GitHub/hmc-qick/firmware/ip/axis_pvp_gen_v2/src/tb/pvp_gen_testing/axil_slv.sv(81).
# ** Warning: Z:/Documents/GitHub/hmc-qick/firmware/ip/axis_pvp_gen_v2/src/tb/pvp_gen_testing/axis_pvp_gen_v2.sv(162): (vopt-2241) Connection width does not match width of port 's_axil_rresp'. The port definition is at: Z:/Documents/GitHub/hmc-qick/firmware/ip/axis_pvp_gen_v2/src/tb/pvp_gen_testing/axil_slv.sv(82).
# ** Warning: Z:/Documents/GitHub/hmc-qick/firmware/ip/axis_pvp_gen_v2/src/tb/pvp_gen_testing/axis_pvp_gen_v2.sv(162): (vopt-2241) Connection width does not match width of port 's_axil_rvalid'. The port definition is at: Z:/Documents/GitHub/hmc-qick/firmware/ip/axis_pvp_gen_v2/src/tb/pvp_gen_testing/axil_slv.sv(83).
# ** Warning: Z:/Documents/GitHub/hmc-qick/firmware/ip/axis_pvp_gen_v2/src/tb/pvp_gen_testing/axis_pvp_gen_v2.sv(162): (vopt-2241) Connection width does not match width of port 's_axil_rready'. The port definition is at: Z:/Documents/GitHub/hmc-qick/firmware/ip/axis_pvp_gen_v2/src/tb/pvp_gen_testing/axil_slv.sv(84).
# ** Warning: Z:/Documents/GitHub/hmc-qick/firmware/ip/axis_pvp_gen_v2/src/tb/pvp_gen_testing/axis_pvp_gen_v2.sv(162): (vopt-2241) Connection width does not match width of port 'm_axil_awaddr'. The port definition is at: Z:/Documents/GitHub/hmc-qick/firmware/ip/axis_pvp_gen_v2/src/tb/pvp_gen_testing/axil_slv.sv(89).
# ** Warning: Z:/Documents/GitHub/hmc-qick/firmware/ip/axis_pvp_gen_v2/src/tb/pvp_gen_testing/axis_pvp_gen_v2.sv(162): (vopt-2241) Connection width does not match width of port 'm_axil_awprot'. The port definition is at: Z:/Documents/GitHub/hmc-qick/firmware/ip/axis_pvp_gen_v2/src/tb/pvp_gen_testing/axil_slv.sv(90).
# ** Warning: Z:/Documents/GitHub/hmc-qick/firmware/ip/axis_pvp_gen_v2/src/tb/pvp_gen_testing/axis_pvp_gen_v2.sv(162): (vopt-2241) Connection width does not match width of port 'm_axil_awvalid'. The port definition is at: Z:/Documents/GitHub/hmc-qick/firmware/ip/axis_pvp_gen_v2/src/tb/pvp_gen_testing/axil_slv.sv(91).
# ** Warning: Z:/Documents/GitHub/hmc-qick/firmware/ip/axis_pvp_gen_v2/src/tb/pvp_gen_testing/axis_pvp_gen_v2.sv(162): (vopt-2241) Connection width does not match width of port 'm_axil_awready'. The port definition is at: Z:/Documents/GitHub/hmc-qick/firmware/ip/axis_pvp_gen_v2/src/tb/pvp_gen_testing/axil_slv.sv(92).
# ** Warning: Z:/Documents/GitHub/hmc-qick/firmware/ip/axis_pvp_gen_v2/src/tb/pvp_gen_testing/axis_pvp_gen_v2.sv(162): (vopt-2241) Connection width does not match width of port 'm_axil_wdata'. The port definition is at: Z:/Documents/GitHub/hmc-qick/firmware/ip/axis_pvp_gen_v2/src/tb/pvp_gen_testing/axil_slv.sv(93).
# ** Warning: Z:/Documents/GitHub/hmc-qick/firmware/ip/axis_pvp_gen_v2/src/tb/pvp_gen_testing/axis_pvp_gen_v2.sv(162): (vopt-2241) Connection width does not match width of port 'm_axil_wstrb'. The port definition is at: Z:/Documents/GitHub/hmc-qick/firmware/ip/axis_pvp_gen_v2/src/tb/pvp_gen_testing/axil_slv.sv(94).
# ** Warning: Z:/Documents/GitHub/hmc-qick/firmware/ip/axis_pvp_gen_v2/src/tb/pvp_gen_testing/axis_pvp_gen_v2.sv(162): (vopt-2241) Connection width does not match width of port 'm_axil_wvalid'. The port definition is at: Z:/Documents/GitHub/hmc-qick/firmware/ip/axis_pvp_gen_v2/src/tb/pvp_gen_testing/axil_slv.sv(95).
# ** Warning: Z:/Documents/GitHub/hmc-qick/firmware/ip/axis_pvp_gen_v2/src/tb/pvp_gen_testing/axis_pvp_gen_v2.sv(162): (vopt-2241) Connection width does not match width of port 'm_axil_wready'. The port definition is at: Z:/Documents/GitHub/hmc-qick/firmware/ip/axis_pvp_gen_v2/src/tb/pvp_gen_testing/axil_slv.sv(96).
# ** Warning: Z:/Documents/GitHub/hmc-qick/firmware/ip/axis_pvp_gen_v2/src/tb/pvp_gen_testing/axis_pvp_gen_v2.sv(162): (vopt-2241) Connection width does not match width of port 'm_axil_bresp'. The port definition is at: Z:/Documents/GitHub/hmc-qick/firmware/ip/axis_pvp_gen_v2/src/tb/pvp_gen_testing/axil_slv.sv(97).
# ** Warning: Z:/Documents/GitHub/hmc-qick/firmware/ip/axis_pvp_gen_v2/src/tb/pvp_gen_testing/axis_pvp_gen_v2.sv(162): (vopt-2241) Connection width does not match width of port 'm_axil_bvalid'. The port definition is at: Z:/Documents/GitHub/hmc-qick/firmware/ip/axis_pvp_gen_v2/src/tb/pvp_gen_testing/axil_slv.sv(98).
# ** Warning: Z:/Documents/GitHub/hmc-qick/firmware/ip/axis_pvp_gen_v2/src/tb/pvp_gen_testing/axis_pvp_gen_v2.sv(162): (vopt-2241) Connection width does not match width of port 'm_axil_bready'. The port definition is at: Z:/Documents/GitHub/hmc-qick/firmware/ip/axis_pvp_gen_v2/src/tb/pvp_gen_testing/axil_slv.sv(99).
# ** Warning: Z:/Documents/GitHub/hmc-qick/firmware/ip/axis_pvp_gen_v2/src/tb/pvp_gen_testing/axis_pvp_gen_v2.sv(162): (vopt-2241) Connection width does not match width of port 'm_axil_araddr'. The port definition is at: Z:/Documents/GitHub/hmc-qick/firmware/ip/axis_pvp_gen_v2/src/tb/pvp_gen_testing/axil_slv.sv(100).
# ** Warning: Z:/Documents/GitHub/hmc-qick/firmware/ip/axis_pvp_gen_v2/src/tb/pvp_gen_testing/axis_pvp_gen_v2.sv(162): (vopt-2241) Connection width does not match width of port 'm_axil_arprot'. The port definition is at: Z:/Documents/GitHub/hmc-qick/firmware/ip/axis_pvp_gen_v2/src/tb/pvp_gen_testing/axil_slv.sv(101).
# ** Warning: Z:/Documents/GitHub/hmc-qick/firmware/ip/axis_pvp_gen_v2/src/tb/pvp_gen_testing/axis_pvp_gen_v2.sv(162): (vopt-2241) Connection width does not match width of port 'm_axil_arvalid'. The port definition is at: Z:/Documents/GitHub/hmc-qick/firmware/ip/axis_pvp_gen_v2/src/tb/pvp_gen_testing/axil_slv.sv(102).
# ** Warning: Z:/Documents/GitHub/hmc-qick/firmware/ip/axis_pvp_gen_v2/src/tb/pvp_gen_testing/axis_pvp_gen_v2.sv(162): (vopt-2241) Connection width does not match width of port 'm_axil_arready'. The port definition is at: Z:/Documents/GitHub/hmc-qick/firmware/ip/axis_pvp_gen_v2/src/tb/pvp_gen_testing/axil_slv.sv(103).
# ** Warning: Z:/Documents/GitHub/hmc-qick/firmware/ip/axis_pvp_gen_v2/src/tb/pvp_gen_testing/axis_pvp_gen_v2.sv(162): (vopt-2241) Connection width does not match width of port 'm_axil_rdata'. The port definition is at: Z:/Documents/GitHub/hmc-qick/firmware/ip/axis_pvp_gen_v2/src/tb/pvp_gen_testing/axil_slv.sv(104).
# ** Warning: Z:/Documents/GitHub/hmc-qick/firmware/ip/axis_pvp_gen_v2/src/tb/pvp_gen_testing/axis_pvp_gen_v2.sv(162): (vopt-2241) Connection width does not match width of port 'm_axil_rresp'. The port definition is at: Z:/Documents/GitHub/hmc-qick/firmware/ip/axis_pvp_gen_v2/src/tb/pvp_gen_testing/axil_slv.sv(105).
# ** Warning: Z:/Documents/GitHub/hmc-qick/firmware/ip/axis_pvp_gen_v2/src/tb/pvp_gen_testing/axis_pvp_gen_v2.sv(162): (vopt-2241) Connection width does not match width of port 'm_axil_rvalid'. The port definition is at: Z:/Documents/GitHub/hmc-qick/firmware/ip/axis_pvp_gen_v2/src/tb/pvp_gen_testing/axil_slv.sv(106).
# ** Warning: Z:/Documents/GitHub/hmc-qick/firmware/ip/axis_pvp_gen_v2/src/tb/pvp_gen_testing/axis_pvp_gen_v2.sv(162): (vopt-2241) Connection width does not match width of port 'm_axil_rready'. The port definition is at: Z:/Documents/GitHub/hmc-qick/firmware/ip/axis_pvp_gen_v2/src/tb/pvp_gen_testing/axil_slv.sv(107).
# ** Error (suppressible): Z:/Documents/GitHub/hmc-qick/firmware/ip/axis_pvp_gen_v2/src/tb/pvp_gen_testing/axis_pvp_gen_v2.sv(162): (vopt-2912) Port 'START_VAL_REG' not found in module 'axil_slv' (41st connection).
# ** Error (suppressible): Z:/Documents/GitHub/hmc-qick/firmware/ip/axis_pvp_gen_v2/src/tb/pvp_gen_testing/axis_pvp_gen_v2.sv(162): (vopt-2912) Port 'STEP_SIZE_REG' not found in module 'axil_slv' (42nd connection).
# ** Error (suppressible): Z:/Documents/GitHub/hmc-qick/firmware/ip/axis_pvp_gen_v2/src/tb/pvp_gen_testing/axis_pvp_gen_v2.sv(162): (vopt-2912) Port 'OUTPUT_REG' not found in module 'axil_slv' (43rd connection).
# ** Warning: Z:/Documents/GitHub/hmc-qick/firmware/ip/axis_pvp_gen_v2/src/tb/pvp_gen_testing/axis_pvp_gen_v2_tb.sv(100): (vopt-2241) Connection width does not match width of port 's_axi_awaddr'. The port definition is at: Z:/Documents/GitHub/hmc-qick/firmware/ip/axis_pvp_gen_v2/src/tb/pvp_gen_testing/axis_pvp_gen_v2.sv(12).
# ** Warning: Z:/Documents/GitHub/hmc-qick/firmware/ip/axis_pvp_gen_v2/src/tb/pvp_gen_testing/axis_pvp_gen_v2_tb.sv(100): (vopt-2241) Connection width does not match width of port 's_axi_araddr'. The port definition is at: Z:/Documents/GitHub/hmc-qick/firmware/ip/axis_pvp_gen_v2/src/tb/pvp_gen_testing/axis_pvp_gen_v2.sv(26).
# ** Warning: Z:/Documents/GitHub/hmc-qick/firmware/ip/axis_pvp_gen_v2/src/tb/pvp_gen_testing/axis_pvp_gen_v2_tb.sv(100): (vopt-2241) Connection width does not match width of port 's_axi_rresp'. The port definition is at: Z:/Documents/GitHub/hmc-qick/firmware/ip/axis_pvp_gen_v2/src/tb/pvp_gen_testing/axis_pvp_gen_v2.sv(32).
# ** Warning: Z:/Documents/GitHub/hmc-qick/firmware/ip/axis_pvp_gen_v2/src/tb/pvp_gen_testing/axis_pvp_gen_v2_tb.sv(100): (vopt-2241) Connection width does not match width of port 'm_axi_awaddr'. The port definition is at: Z:/Documents/GitHub/hmc-qick/firmware/ip/axis_pvp_gen_v2/src/tb/pvp_gen_testing/axis_pvp_gen_v2.sv(37).
# ** Warning: Z:/Documents/GitHub/hmc-qick/firmware/ip/axis_pvp_gen_v2/src/tb/pvp_gen_testing/axis_pvp_gen_v2_tb.sv(100): (vopt-2241) Connection width does not match width of port 'm_axi_araddr'. The port definition is at: Z:/Documents/GitHub/hmc-qick/firmware/ip/axis_pvp_gen_v2/src/tb/pvp_gen_testing/axis_pvp_gen_v2.sv(51).
# ** Warning: Z:/Documents/GitHub/hmc-qick/firmware/ip/axis_pvp_gen_v2/src/tb/pvp_gen_testing/axis_pvp_gen_v2_tb.sv(100): (vopt-2241) Connection width does not match width of port 'm_axi_rresp'. The port definition is at: Z:/Documents/GitHub/hmc-qick/firmware/ip/axis_pvp_gen_v2/src/tb/pvp_gen_testing/axis_pvp_gen_v2.sv(57).
# Optimization failed
# ** Note: (vsim-12126) Error and warning message counts have been restored: Errors=3, Warnings=48.
# Error loading design
# End time: 00:27:24 on Feb 27,2025, Elapsed time: 0:00:03
# Errors: 3, Warnings: 50















vsim -gui work.axis_pvp_gen_v2_tb
# vsim -gui work.axis_pvp_gen_v2_tb 
# Start time: 00:28:31 on Feb 27,2025
# ** Note: (vsim-3812) Design is being optimized...
# ** Warning: Z:/Documents/GitHub/hmc-qick/firmware/ip/axis_pvp_gen_v2/src/tb/pvp_gen_testing/axi_spi_simple.vhd(153): (vopt-3473) Component instance "U0 : spi_peripheral" is not bound.
#         Region: axis_pvp_gen_v2_tb.axi_spi_i
# ** Warning: Z:/Documents/GitHub/hmc-qick/firmware/ip/axis_pvp_gen_v2/src/tb/pvp_gen_testing/axi_spi_simple.vhd(178): (vopt-3473) Component instance "U1 : axi4_lite_interface_v1_0" is not bound.
#         Region: axis_pvp_gen_v2_tb.axi_spi_i
# ** Warning: Z:/Documents/GitHub/hmc-qick/firmware/ip/axis_pvp_gen_v2/src/tb/pvp_gen_testing/axis_pvp_gen_v2_tb.sv(163): (vopt-2241) Connection width does not match width of port 'M_AXI_RRESP'. The port definition is at: Z:/Documents/GitHub/hmc-qick/firmware/ip/axis_pvp_gen_v2/src/tb/pvp_gen_testing/axi_lite_master.sv(53).
# ** Warning: Z:/Documents/GitHub/hmc-qick/firmware/ip/axis_pvp_gen_v2/src/tb/pvp_gen_testing/axis_pvp_gen_v2.sv(237): (vopt-2241) Connection width does not match width of port 'mosi'. The port definition is at: Z:/Documents/GitHub/hmc-qick/firmware/ip/axis_pvp_gen_v2/src/no_mem_sweep.sv(18).
# ** Warning: Z:/Documents/GitHub/hmc-qick/firmware/ip/axis_pvp_gen_v2/src/tb/pvp_gen_testing/axis_pvp_gen_v2.sv(162): (vopt-2241) Connection width does not match width of port 's_axil_awaddr'. The port definition is at: Z:/Documents/GitHub/hmc-qick/firmware/ip/axis_pvp_gen_v2/src/tb/pvp_gen_testing/axil_slv.sv(66).
# ** Warning: Z:/Documents/GitHub/hmc-qick/firmware/ip/axis_pvp_gen_v2/src/tb/pvp_gen_testing/axis_pvp_gen_v2.sv(162): (vopt-2241) Connection width does not match width of port 's_axil_awprot'. The port definition is at: Z:/Documents/GitHub/hmc-qick/firmware/ip/axis_pvp_gen_v2/src/tb/pvp_gen_testing/axil_slv.sv(67).
# ** Warning: Z:/Documents/GitHub/hmc-qick/firmware/ip/axis_pvp_gen_v2/src/tb/pvp_gen_testing/axis_pvp_gen_v2.sv(162): (vopt-2241) Connection width does not match width of port 's_axil_awvalid'. The port definition is at: Z:/Documents/GitHub/hmc-qick/firmware/ip/axis_pvp_gen_v2/src/tb/pvp_gen_testing/axil_slv.sv(68).
# ** Warning: Z:/Documents/GitHub/hmc-qick/firmware/ip/axis_pvp_gen_v2/src/tb/pvp_gen_testing/axis_pvp_gen_v2.sv(162): (vopt-2241) Connection width does not match width of port 's_axil_awready'. The port definition is at: Z:/Documents/GitHub/hmc-qick/firmware/ip/axis_pvp_gen_v2/src/tb/pvp_gen_testing/axil_slv.sv(69).
# ** Warning: Z:/Documents/GitHub/hmc-qick/firmware/ip/axis_pvp_gen_v2/src/tb/pvp_gen_testing/axis_pvp_gen_v2.sv(162): (vopt-2241) Connection width does not match width of port 's_axil_wdata'. The port definition is at: Z:/Documents/GitHub/hmc-qick/firmware/ip/axis_pvp_gen_v2/src/tb/pvp_gen_testing/axil_slv.sv(70).
# ** Warning: Z:/Documents/GitHub/hmc-qick/firmware/ip/axis_pvp_gen_v2/src/tb/pvp_gen_testing/axis_pvp_gen_v2.sv(162): (vopt-2241) Connection width does not match width of port 's_axil_wstrb'. The port definition is at: Z:/Documents/GitHub/hmc-qick/firmware/ip/axis_pvp_gen_v2/src/tb/pvp_gen_testing/axil_slv.sv(71).
# ** Warning: Z:/Documents/GitHub/hmc-qick/firmware/ip/axis_pvp_gen_v2/src/tb/pvp_gen_testing/axis_pvp_gen_v2.sv(162): (vopt-2241) Connection width does not match width of port 's_axil_wvalid'. The port definition is at: Z:/Documents/GitHub/hmc-qick/firmware/ip/axis_pvp_gen_v2/src/tb/pvp_gen_testing/axil_slv.sv(72).
# ** Warning: Z:/Documents/GitHub/hmc-qick/firmware/ip/axis_pvp_gen_v2/src/tb/pvp_gen_testing/axis_pvp_gen_v2.sv(162): (vopt-2241) Connection width does not match width of port 's_axil_wready'. The port definition is at: Z:/Documents/GitHub/hmc-qick/firmware/ip/axis_pvp_gen_v2/src/tb/pvp_gen_testing/axil_slv.sv(73).
# ** Warning: Z:/Documents/GitHub/hmc-qick/firmware/ip/axis_pvp_gen_v2/src/tb/pvp_gen_testing/axis_pvp_gen_v2.sv(162): (vopt-2241) Connection width does not match width of port 's_axil_bresp'. The port definition is at: Z:/Documents/GitHub/hmc-qick/firmware/ip/axis_pvp_gen_v2/src/tb/pvp_gen_testing/axil_slv.sv(74).
# ** Warning: Z:/Documents/GitHub/hmc-qick/firmware/ip/axis_pvp_gen_v2/src/tb/pvp_gen_testing/axis_pvp_gen_v2.sv(162): (vopt-2241) Connection width does not match width of port 's_axil_bvalid'. The port definition is at: Z:/Documents/GitHub/hmc-qick/firmware/ip/axis_pvp_gen_v2/src/tb/pvp_gen_testing/axil_slv.sv(75).
# ** Warning: Z:/Documents/GitHub/hmc-qick/firmware/ip/axis_pvp_gen_v2/src/tb/pvp_gen_testing/axis_pvp_gen_v2.sv(162): (vopt-2241) Connection width does not match width of port 's_axil_bready'. The port definition is at: Z:/Documents/GitHub/hmc-qick/firmware/ip/axis_pvp_gen_v2/src/tb/pvp_gen_testing/axil_slv.sv(76).
# ** Warning: Z:/Documents/GitHub/hmc-qick/firmware/ip/axis_pvp_gen_v2/src/tb/pvp_gen_testing/axis_pvp_gen_v2.sv(162): (vopt-2241) Connection width does not match width of port 's_axil_araddr'. The port definition is at: Z:/Documents/GitHub/hmc-qick/firmware/ip/axis_pvp_gen_v2/src/tb/pvp_gen_testing/axil_slv.sv(77).
# ** Warning: Z:/Documents/GitHub/hmc-qick/firmware/ip/axis_pvp_gen_v2/src/tb/pvp_gen_testing/axis_pvp_gen_v2.sv(162): (vopt-2241) Connection width does not match width of port 's_axil_arprot'. The port definition is at: Z:/Documents/GitHub/hmc-qick/firmware/ip/axis_pvp_gen_v2/src/tb/pvp_gen_testing/axil_slv.sv(78).
# ** Warning: Z:/Documents/GitHub/hmc-qick/firmware/ip/axis_pvp_gen_v2/src/tb/pvp_gen_testing/axis_pvp_gen_v2.sv(162): (vopt-2241) Connection width does not match width of port 's_axil_arvalid'. The port definition is at: Z:/Documents/GitHub/hmc-qick/firmware/ip/axis_pvp_gen_v2/src/tb/pvp_gen_testing/axil_slv.sv(79).
# ** Warning: Z:/Documents/GitHub/hmc-qick/firmware/ip/axis_pvp_gen_v2/src/tb/pvp_gen_testing/axis_pvp_gen_v2.sv(162): (vopt-2241) Connection width does not match width of port 's_axil_arready'. The port definition is at: Z:/Documents/GitHub/hmc-qick/firmware/ip/axis_pvp_gen_v2/src/tb/pvp_gen_testing/axil_slv.sv(80).
# ** Warning: Z:/Documents/GitHub/hmc-qick/firmware/ip/axis_pvp_gen_v2/src/tb/pvp_gen_testing/axis_pvp_gen_v2.sv(162): (vopt-2241) Connection width does not match width of port 's_axil_rdata'. The port definition is at: Z:/Documents/GitHub/hmc-qick/firmware/ip/axis_pvp_gen_v2/src/tb/pvp_gen_testing/axil_slv.sv(81).
# ** Warning: Z:/Documents/GitHub/hmc-qick/firmware/ip/axis_pvp_gen_v2/src/tb/pvp_gen_testing/axis_pvp_gen_v2.sv(162): (vopt-2241) Connection width does not match width of port 's_axil_rresp'. The port definition is at: Z:/Documents/GitHub/hmc-qick/firmware/ip/axis_pvp_gen_v2/src/tb/pvp_gen_testing/axil_slv.sv(82).
# ** Warning: Z:/Documents/GitHub/hmc-qick/firmware/ip/axis_pvp_gen_v2/src/tb/pvp_gen_testing/axis_pvp_gen_v2.sv(162): (vopt-2241) Connection width does not match width of port 's_axil_rvalid'. The port definition is at: Z:/Documents/GitHub/hmc-qick/firmware/ip/axis_pvp_gen_v2/src/tb/pvp_gen_testing/axil_slv.sv(83).
# ** Warning: Z:/Documents/GitHub/hmc-qick/firmware/ip/axis_pvp_gen_v2/src/tb/pvp_gen_testing/axis_pvp_gen_v2.sv(162): (vopt-2241) Connection width does not match width of port 's_axil_rready'. The port definition is at: Z:/Documents/GitHub/hmc-qick/firmware/ip/axis_pvp_gen_v2/src/tb/pvp_gen_testing/axil_slv.sv(84).
# ** Warning: Z:/Documents/GitHub/hmc-qick/firmware/ip/axis_pvp_gen_v2/src/tb/pvp_gen_testing/axis_pvp_gen_v2.sv(162): (vopt-2241) Connection width does not match width of port 'm_axil_awaddr'. The port definition is at: Z:/Documents/GitHub/hmc-qick/firmware/ip/axis_pvp_gen_v2/src/tb/pvp_gen_testing/axil_slv.sv(89).
# ** Warning: Z:/Documents/GitHub/hmc-qick/firmware/ip/axis_pvp_gen_v2/src/tb/pvp_gen_testing/axis_pvp_gen_v2.sv(162): (vopt-2241) Connection width does not match width of port 'm_axil_awprot'. The port definition is at: Z:/Documents/GitHub/hmc-qick/firmware/ip/axis_pvp_gen_v2/src/tb/pvp_gen_testing/axil_slv.sv(90).
# ** Warning: Z:/Documents/GitHub/hmc-qick/firmware/ip/axis_pvp_gen_v2/src/tb/pvp_gen_testing/axis_pvp_gen_v2.sv(162): (vopt-2241) Connection width does not match width of port 'm_axil_awvalid'. The port definition is at: Z:/Documents/GitHub/hmc-qick/firmware/ip/axis_pvp_gen_v2/src/tb/pvp_gen_testing/axil_slv.sv(91).
# ** Warning: Z:/Documents/GitHub/hmc-qick/firmware/ip/axis_pvp_gen_v2/src/tb/pvp_gen_testing/axis_pvp_gen_v2.sv(162): (vopt-2241) Connection width does not match width of port 'm_axil_awready'. The port definition is at: Z:/Documents/GitHub/hmc-qick/firmware/ip/axis_pvp_gen_v2/src/tb/pvp_gen_testing/axil_slv.sv(92).
# ** Warning: Z:/Documents/GitHub/hmc-qick/firmware/ip/axis_pvp_gen_v2/src/tb/pvp_gen_testing/axis_pvp_gen_v2.sv(162): (vopt-2241) Connection width does not match width of port 'm_axil_wdata'. The port definition is at: Z:/Documents/GitHub/hmc-qick/firmware/ip/axis_pvp_gen_v2/src/tb/pvp_gen_testing/axil_slv.sv(93).
# ** Warning: Z:/Documents/GitHub/hmc-qick/firmware/ip/axis_pvp_gen_v2/src/tb/pvp_gen_testing/axis_pvp_gen_v2.sv(162): (vopt-2241) Connection width does not match width of port 'm_axil_wstrb'. The port definition is at: Z:/Documents/GitHub/hmc-qick/firmware/ip/axis_pvp_gen_v2/src/tb/pvp_gen_testing/axil_slv.sv(94).
# ** Warning: Z:/Documents/GitHub/hmc-qick/firmware/ip/axis_pvp_gen_v2/src/tb/pvp_gen_testing/axis_pvp_gen_v2.sv(162): (vopt-2241) Connection width does not match width of port 'm_axil_wvalid'. The port definition is at: Z:/Documents/GitHub/hmc-qick/firmware/ip/axis_pvp_gen_v2/src/tb/pvp_gen_testing/axil_slv.sv(95).
# ** Warning: Z:/Documents/GitHub/hmc-qick/firmware/ip/axis_pvp_gen_v2/src/tb/pvp_gen_testing/axis_pvp_gen_v2.sv(162): (vopt-2241) Connection width does not match width of port 'm_axil_wready'. The port definition is at: Z:/Documents/GitHub/hmc-qick/firmware/ip/axis_pvp_gen_v2/src/tb/pvp_gen_testing/axil_slv.sv(96).
# ** Warning: Z:/Documents/GitHub/hmc-qick/firmware/ip/axis_pvp_gen_v2/src/tb/pvp_gen_testing/axis_pvp_gen_v2.sv(162): (vopt-2241) Connection width does not match width of port 'm_axil_bresp'. The port definition is at: Z:/Documents/GitHub/hmc-qick/firmware/ip/axis_pvp_gen_v2/src/tb/pvp_gen_testing/axil_slv.sv(97).
# ** Warning: Z:/Documents/GitHub/hmc-qick/firmware/ip/axis_pvp_gen_v2/src/tb/pvp_gen_testing/axis_pvp_gen_v2.sv(162): (vopt-2241) Connection width does not match width of port 'm_axil_bvalid'. The port definition is at: Z:/Documents/GitHub/hmc-qick/firmware/ip/axis_pvp_gen_v2/src/tb/pvp_gen_testing/axil_slv.sv(98).
# ** Warning: Z:/Documents/GitHub/hmc-qick/firmware/ip/axis_pvp_gen_v2/src/tb/pvp_gen_testing/axis_pvp_gen_v2.sv(162): (vopt-2241) Connection width does not match width of port 'm_axil_bready'. The port definition is at: Z:/Documents/GitHub/hmc-qick/firmware/ip/axis_pvp_gen_v2/src/tb/pvp_gen_testing/axil_slv.sv(99).
# ** Warning: Z:/Documents/GitHub/hmc-qick/firmware/ip/axis_pvp_gen_v2/src/tb/pvp_gen_testing/axis_pvp_gen_v2.sv(162): (vopt-2241) Connection width does not match width of port 'm_axil_araddr'. The port definition is at: Z:/Documents/GitHub/hmc-qick/firmware/ip/axis_pvp_gen_v2/src/tb/pvp_gen_testing/axil_slv.sv(100).
# ** Warning: Z:/Documents/GitHub/hmc-qick/firmware/ip/axis_pvp_gen_v2/src/tb/pvp_gen_testing/axis_pvp_gen_v2.sv(162): (vopt-2241) Connection width does not match width of port 'm_axil_arprot'. The port definition is at: Z:/Documents/GitHub/hmc-qick/firmware/ip/axis_pvp_gen_v2/src/tb/pvp_gen_testing/axil_slv.sv(101).
# ** Warning: Z:/Documents/GitHub/hmc-qick/firmware/ip/axis_pvp_gen_v2/src/tb/pvp_gen_testing/axis_pvp_gen_v2.sv(162): (vopt-2241) Connection width does not match width of port 'm_axil_arvalid'. The port definition is at: Z:/Documents/GitHub/hmc-qick/firmware/ip/axis_pvp_gen_v2/src/tb/pvp_gen_testing/axil_slv.sv(102).
# ** Warning: Z:/Documents/GitHub/hmc-qick/firmware/ip/axis_pvp_gen_v2/src/tb/pvp_gen_testing/axis_pvp_gen_v2.sv(162): (vopt-2241) Connection width does not match width of port 'm_axil_arready'. The port definition is at: Z:/Documents/GitHub/hmc-qick/firmware/ip/axis_pvp_gen_v2/src/tb/pvp_gen_testing/axil_slv.sv(103).
# ** Warning: Z:/Documents/GitHub/hmc-qick/firmware/ip/axis_pvp_gen_v2/src/tb/pvp_gen_testing/axis_pvp_gen_v2.sv(162): (vopt-2241) Connection width does not match width of port 'm_axil_rdata'. The port definition is at: Z:/Documents/GitHub/hmc-qick/firmware/ip/axis_pvp_gen_v2/src/tb/pvp_gen_testing/axil_slv.sv(104).
# ** Warning: Z:/Documents/GitHub/hmc-qick/firmware/ip/axis_pvp_gen_v2/src/tb/pvp_gen_testing/axis_pvp_gen_v2.sv(162): (vopt-2241) Connection width does not match width of port 'm_axil_rresp'. The port definition is at: Z:/Documents/GitHub/hmc-qick/firmware/ip/axis_pvp_gen_v2/src/tb/pvp_gen_testing/axil_slv.sv(105).
# ** Warning: Z:/Documents/GitHub/hmc-qick/firmware/ip/axis_pvp_gen_v2/src/tb/pvp_gen_testing/axis_pvp_gen_v2.sv(162): (vopt-2241) Connection width does not match width of port 'm_axil_rvalid'. The port definition is at: Z:/Documents/GitHub/hmc-qick/firmware/ip/axis_pvp_gen_v2/src/tb/pvp_gen_testing/axil_slv.sv(106).
# ** Warning: Z:/Documents/GitHub/hmc-qick/firmware/ip/axis_pvp_gen_v2/src/tb/pvp_gen_testing/axis_pvp_gen_v2.sv(162): (vopt-2241) Connection width does not match width of port 'm_axil_rready'. The port definition is at: Z:/Documents/GitHub/hmc-qick/firmware/ip/axis_pvp_gen_v2/src/tb/pvp_gen_testing/axil_slv.sv(107).
# ** Error (suppressible): Z:/Documents/GitHub/hmc-qick/firmware/ip/axis_pvp_gen_v2/src/tb/pvp_gen_testing/axis_pvp_gen_v2.sv(162): (vopt-2912) Port 'START_VAL_REG' not found in module 'axil_slv' (41st connection).
# ** Error (suppressible): Z:/Documents/GitHub/hmc-qick/firmware/ip/axis_pvp_gen_v2/src/tb/pvp_gen_testing/axis_pvp_gen_v2.sv(162): (vopt-2912) Port 'STEP_SIZE_REG' not found in module 'axil_slv' (42nd connection).
# ** Error (suppressible): Z:/Documents/GitHub/hmc-qick/firmware/ip/axis_pvp_gen_v2/src/tb/pvp_gen_testing/axis_pvp_gen_v2.sv(162): (vopt-2912) Port 'OUTPUT_REG' not found in module 'axil_slv' (43rd connection).
# ** Warning: Z:/Documents/GitHub/hmc-qick/firmware/ip/axis_pvp_gen_v2/src/tb/pvp_gen_testing/axis_pvp_gen_v2_tb.sv(100): (vopt-2241) Connection width does not match width of port 's_axi_awaddr'. The port definition is at: Z:/Documents/GitHub/hmc-qick/firmware/ip/axis_pvp_gen_v2/src/tb/pvp_gen_testing/axis_pvp_gen_v2.sv(12).
# ** Warning: Z:/Documents/GitHub/hmc-qick/firmware/ip/axis_pvp_gen_v2/src/tb/pvp_gen_testing/axis_pvp_gen_v2_tb.sv(100): (vopt-2241) Connection width does not match width of port 's_axi_araddr'. The port definition is at: Z:/Documents/GitHub/hmc-qick/firmware/ip/axis_pvp_gen_v2/src/tb/pvp_gen_testing/axis_pvp_gen_v2.sv(26).
# ** Warning: Z:/Documents/GitHub/hmc-qick/firmware/ip/axis_pvp_gen_v2/src/tb/pvp_gen_testing/axis_pvp_gen_v2_tb.sv(100): (vopt-2241) Connection width does not match width of port 's_axi_rresp'. The port definition is at: Z:/Documents/GitHub/hmc-qick/firmware/ip/axis_pvp_gen_v2/src/tb/pvp_gen_testing/axis_pvp_gen_v2.sv(32).
# ** Warning: Z:/Documents/GitHub/hmc-qick/firmware/ip/axis_pvp_gen_v2/src/tb/pvp_gen_testing/axis_pvp_gen_v2_tb.sv(100): (vopt-2241) Connection width does not match width of port 'm_axi_awaddr'. The port definition is at: Z:/Documents/GitHub/hmc-qick/firmware/ip/axis_pvp_gen_v2/src/tb/pvp_gen_testing/axis_pvp_gen_v2.sv(37).
# ** Warning: Z:/Documents/GitHub/hmc-qick/firmware/ip/axis_pvp_gen_v2/src/tb/pvp_gen_testing/axis_pvp_gen_v2_tb.sv(100): (vopt-2241) Connection width does not match width of port 'm_axi_araddr'. The port definition is at: Z:/Documents/GitHub/hmc-qick/firmware/ip/axis_pvp_gen_v2/src/tb/pvp_gen_testing/axis_pvp_gen_v2.sv(51).
# ** Warning: Z:/Documents/GitHub/hmc-qick/firmware/ip/axis_pvp_gen_v2/src/tb/pvp_gen_testing/axis_pvp_gen_v2_tb.sv(100): (vopt-2241) Connection width does not match width of port 'm_axi_rresp'. The port definition is at: Z:/Documents/GitHub/hmc-qick/firmware/ip/axis_pvp_gen_v2/src/tb/pvp_gen_testing/axis_pvp_gen_v2.sv(57).
# Optimization failed
# ** Note: (vsim-12126) Error and warning message counts have been restored: Errors=3, Warnings=48.
# Error loading design
# End time: 00:28:34 on Feb 27,2025, Elapsed time: 0:00:03
# Errors: 3, Warnings: 49
# Compile of axil_slv.sv was successful.
# Compile of axis_pvp_gen_v2_tb.sv was successful.
vsim -gui work.axis_pvp_gen_v2_tb
# vsim -gui work.axis_pvp_gen_v2_tb 
# Start time: 00:37:41 on Feb 27,2025
# ** Note: (vsim-3812) Design is being optimized...
# ** Warning: Z:/Documents/GitHub/hmc-qick/firmware/ip/axis_pvp_gen_v2/src/tb/pvp_gen_testing/axi_spi_simple.vhd(153): (vopt-3473) Component instance "U0 : spi_peripheral" is not bound.
#         Region: axis_pvp_gen_v2_tb.axi_spi_i
# ** Warning: Z:/Documents/GitHub/hmc-qick/firmware/ip/axis_pvp_gen_v2/src/tb/pvp_gen_testing/axi_spi_simple.vhd(178): (vopt-3473) Component instance "U1 : axi4_lite_interface_v1_0" is not bound.
#         Region: axis_pvp_gen_v2_tb.axi_spi_i
# ** Warning: Z:/Documents/GitHub/hmc-qick/firmware/ip/axis_pvp_gen_v2/src/tb/pvp_gen_testing/axis_pvp_gen_v2_tb.sv(167): (vopt-2241) Connection width does not match width of port 'M_AXI_AWADDR'. The port definition is at: Z:/Documents/GitHub/hmc-qick/firmware/ip/axis_pvp_gen_v2/src/tb/pvp_gen_testing/axi_lite_master.sv(29).
